(1468514638.739473) vcan0 0CFE17F0#7D7DF0FFFFFFFFFF
(1468514638.740028) vcan0 0CFE41F0#03030F3F0F0FFFFF
(1468514638.740591) vcan0 0CFE40F0#03030F3F0F0FFFFF
(1468514638.741168) vcan0 0CACFFF0#CE7D11FFFFFFFFFF
(1468514638.741737) vcan0 0CF022F0#000000000000FFE1
(1468514638.804082) vcan0 09F8022C#FFFC00000000FFFF
(1468514638.806934) vcan0 09F8032C#FFFF000000000000
(1468514638.833316) vcan0 1CE7FF80#230A0001FFFFFFFF
(1468514638.833893) vcan0 0CFE48F0#00000000000001D5
(1468514638.834464) vcan0 0CF004F0#FFFFFF3823FFFFFF
(1468514638.835041) vcan0 0CFEF2F0#4E00FFFFFFFFFFFF
(1468514638.835608) vcan0 0CFE45F0#F2CF80447FFFFFFF
(1468514638.836198) vcan0 0CFE11F0#7D7DF0FFFFFFFFFF
(1468514638.836781) vcan0 0CFE12F0#7D7DF0FFFFFFFFFF
(1468514638.837369) vcan0 0CFE13F0#7D7DF0FFFFFFFFFF
(1468514638.837953) vcan0 0CFE14F0#7D7DF0FFFFFFFFFF
(1468514638.838537) vcan0 0CFE15F0#7D7DF0FFFFFFFFFF
(1468514638.839122) vcan0 0CFE17F0#7D7DF0FFFFFFFFFF
(1468514638.839692) vcan0 0CACFFF0#CE7D11FFFFFFFFFF
(1468514638.840274) vcan0 0CF022F0#000000000000FFE1
(1468514638.904442) vcan0 09F8022C#FFFC00000000FFFF
(1468514638.907266) vcan0 09F8032C#FFFF000000000000
(1468514638.933321) vcan0 1CE7FF80#230A0001FFFFFFFF
(1468514638.933898) vcan0 0CFE48F0#00000000000001D5
(1468514638.934471) vcan0 0CF004F0#FFFFFF4023FFFFFF
(1468514638.935046) vcan0 0CFEF2F0#5400FFFFFFFFFFFF
(1468514638.935615) vcan0 0CFE45F0#F2CF80447FFFFFFF
(1468514638.936202) vcan0 0CFE11F0#7D7DF0FFFFFFFFFF
(1468514638.936788) vcan0 0CFE12F0#7D7DF0FFFFFFFFFF
(1468514638.937375) vcan0 0CFE13F0#7D7DF0FFFFFFFFFF
(1468514638.937959) vcan0 0CFE14F0#7D7DF0FFFFFFFFFF
(1468514638.938543) vcan0 0CFE15F0#7D7DF0FFFFFFFFFF
(1468514638.939128) vcan0 0CFE17F0#7D7DF0FFFFFFFFFF
(1468514638.939700) vcan0 0CACFFF0#CE7D11FFFFFFFFFF
(1468514638.940279) vcan0 0CF022F0#000000000000FFE1
(1468514639.004788) vcan0 09F8022C#FFFC00000000FFFF
(1468514639.007806) vcan0 09F8032C#FFFF000000000000
(1468514639.034683) vcan0 1CE72680#FF0003FFFFFFFFFF
(1468514639.035265) vcan0 1CE7FF80#230A0001FFFFFFFF
(1468514639.035844) vcan0 0CFE48F0#00000000000001D5
(1468514639.036416) vcan0 0CF004F0#FFFFFF4823FFFFFF
(1468514639.036993) vcan0 0CFEF2F0#5400FFFFFFFFFFFF
(1468514639.037561) vcan0 0CFE45F0#F2CF80447FFFFFFF
(1468514639.038149) vcan0 0CFE11F0#7D7DF0FFFFFFFFFF
(1468514639.038734) vcan0 0CFE12F0#7D7DF0FFFFFFFFFF
(1468514639.039321) vcan0 0CFE13F0#7D7DF0FFFFFFFFFF
(1468514639.039905) vcan0 0CFE14F0#7D7DF0FFFFFFFFFF
(1468514639.040490) vcan0 0CFE15F0#7D7DF0FFFFFFFFFF
(1468514639.041073) vcan0 0CFE17F0#7D7DF0FFFFFFFFFF
(1468514639.041647) vcan0 0CACFFF0#CA7D11FFFFFFFFFF
(1468514639.042226) vcan0 0CF022F0#000000000000FFE1
(1468514639.053380) vcan0 1CE726F0#FF0003FFFFFFFFFF
(1468514639.105182) vcan0 09F8022C#FFFC00000000FFFF
(1468514639.107186) vcan0 09F8032C#FFFF000000000000
(1468514639.109206) vcan0 0DF8092C#6B42208BCE170000
(1468514639.111916) vcan0 0DF8052C#802BFF6B42208BCE
(1468514639.113740) vcan0 0DF8052C#8117000000000000
(1468514639.117424) vcan0 0DF8052C#8200000000000000
(1468514639.119472) vcan0 0DF8052C#8300000000000000
(1468514639.122240) vcan0 0DF8052C#840000000000FF00
(1468514639.124072) vcan0 0DF8052C#8500000000000000
(1468514639.127656) vcan0 0DF8052C#860000FFFFFFFFFF
(1468514639.129719) vcan0 0DF9032C#FFFF00000000FFFF
(1468514639.133324) vcan0 1CE7FF80#230A0001FFFFFFFF
(1468514639.133904) vcan0 0CFE48F0#00000000000001D5
(1468514639.134475) vcan0 0CF004F0#FFFFFF4023FFFFFF
(1468514639.135052) vcan0 0CFEF2F0#5000FFFFFFFFFFFF
(1468514639.135619) vcan0 0CFE45F0#F2CF80447FFFFFFF
(1468514639.136208) vcan0 0CFE11F0#7D7DF0FFFFFFFFFF
(1468514639.136792) vcan0 0CFE12F0#7D7DF0FFFFFFFFFF
(1468514639.137381) vcan0 0CFE13F0#7D7DF0FFFFFFFFFF
(1468514639.137965) vcan0 0CFE14F0#7D7DF0FFFFFFFFFF
(1468514639.138548) vcan0 0CFE15F0#7D7DF0FFFFFFFFFF
(1468514639.139133) vcan0 0CFE17F0#7D7DF0FFFFFFFFFF
(1468514639.139704) vcan0 0CACFFF0#CE7D11FFFFFFFFFF
(1468514639.140285) vcan0 0CF022F0#000000000000FFE1
(1468514639.204649) vcan0 09F8022C#FFFC00000000FFFF
(1468514639.206766) vcan0 09F8032C#FFFF000000000000
(1468514639.233337) vcan0 1CE7FF80#230A0001FFFFFFFF
(1468514639.233913) vcan0 0CFE48F0#00000000000001D5
(1468514639.234485) vcan0 0CF004F0#FFFFFF4023FFFFFF
(1468514639.235069) vcan0 0CFEF2F0#5000FFFFFFFFFFFF
(1468514639.235632) vcan0 0CFE45F0#F2CF80447FFFFFFF
(1468514639.236217) vcan0 0CFE11F0#7D7DF0FFFFFFFFFF
(1468514639.236804) vcan0 0CFE12F0#7D7DF0FFFFFFFFFF
(1468514639.237390) vcan0 0CFE13F0#7D7DF0FFFFFFFFFF
(1468514639.237974) vcan0 0CFE14F0#7D7DF0FFFFFFFFFF
(1468514639.238558) vcan0 0CFE15F0#7D7DF0FFFFFFFFFF
(1468514639.239143) vcan0 0CFE17F0#7D7DF0FFFFFFFFFF
(1468514639.239715) vcan0 0CACFFF0#CE7D11FFFFFFFFFF
(1468514639.240294) vcan0 0CF022F0#000000000000FFE1
(1468514639.273672) vcan0 1CE6FF26#FEFFFFFFFFFF00FF
(1468514639.303959) vcan0 09F8022C#FFFC00000000FFFF
(1468514639.306960) vcan0 09F8032C#FFFF000000000000
(1468514639.333302) vcan0 1CE7FF80#230A0001FFFFFFFF
(1468514639.333880) vcan0 0CFE48F0#00000000000001D5
(1468514639.334452) vcan0 0CF004F0#FFFFFF4023FFFFFF
(1468514639.335028) vcan0 0CFEF2F0#4E00FFFFFFFFFFFF
(1468514639.335597) vcan0 0CFE45F0#F2CF80447FFFFFFF
(1468514639.336184) vcan0 0CFE11F0#7D7DF0FFFFFFFFFF
(1468514639.336768) vcan0 0CFE12F0#7D7DF0FFFFFFFFFF
(1468514639.337357) vcan0 0CFE13F0#7D7DF0FFFFFFFFFF
(1468514639.337940) vcan0 0CFE14F0#7D7DF0FFFFFFFFFF
(1468514639.338525) vcan0 0CFE15F0#7D7DF0FFFFFFFFFF
(1468514639.339108) vcan0 0CFE17F0#7D7DF0FFFFFFFFFF
(1468514639.339681) vcan0 0CACFFF0#CE7D11FFFFFFFFFF
(1468514639.340260) vcan0 0CF022F0#000000000000FFE1
(1468514639.404144) vcan0 09F8022C#FFFC00000000FFFF
(1468514639.406866) vcan0 09F8032C#FFFF000000000000
(1468514639.433936) vcan0 1CE7FF80#230A0001FFFFFFFF
(1468514639.434513) vcan0 0CFE48F0#00000000000001D5
(1468514639.435086) vcan0 0CF004F0#FFFFFF4023FFFFFF
(1468514639.435661) vcan0 0CFEF2F0#5000FFFFFFFFFFFF
(1468514639.436230) vcan0 0CFE45F0#F2CF80447FFFFFFF
(1468514639.436818) vcan0 0CFE11F0#7D7DF0FFFFFFFFFF
(1468514639.437402) vcan0 0CFE12F0#7D7DF0FFFFFFFFFF
(1468514639.437990) vcan0 0CFE13F0#7D7DF0FFFFFFFFFF
(1468514639.438574) vcan0 0CFE14F0#7D7DF0FFFFFFFFFF
(1468514639.439159) vcan0 0CFE15F0#7D7DF0FFFFFFFFFF
(1468514639.439742) vcan0 0CFE17F0#7D7DF0FFFFFFFFFF
(1468514639.440315) vcan0 0CACFFF0#CA7D11FFFFFFFFFF
(1468514639.440894) vcan0 0CF022F0#000000000000FFE1
(1468514639.504486) vcan0 09F8022C#FFFC00000000FFFF
(1468514639.507207) vcan0 09F8032C#FFFF000000000000
(1468514639.533606) vcan0 1CE7FF80#230A0001FFFFFFFF
(1468514639.534183) vcan0 0CFE48F0#00000000000001D5
(1468514639.534756) vcan0 0CF004F0#FFFFFF4023FFFFFF
(1468514639.535331) vcan0 0CFEF2F0#5000FFFFFFFFFFFF
(1468514639.535900) vcan0 0CFE45F0#F2CF80447FFFFFFF
(1468514639.536488) vcan0 0CFE11F0#7D7DF0FFFFFFFFFF
(1468514639.537072) vcan0 0CFE12F0#7D7DF0FFFFFFFFFF
(1468514639.537661) vcan0 0CFE13F0#7D7DF0FFFFFFFFFF
(1468514639.538244) vcan0 0CFE14F0#7D7DF0FFFFFFFFFF
(1468514639.538829) vcan0 0CFE15F0#7D7DF0FFFFFFFFFF
(1468514639.539412) vcan0 0CFE17F0#7D7DF0FFFFFFFFFF
(1468514639.539985) vcan0 0CACFFF0#CE7D11FFFFFFFFFF
(1468514639.540565) vcan0 0CF022F0#000000000000FFE1
(1468514639.604092) vcan0 09F8022C#FFFC00000000FFFF
(1468514639.607650) vcan0 09F8032C#FFFF000000000000
(1468514639.633256) vcan0 1CE7FF80#230A0001FFFFFFFF
(1468514639.633834) vcan0 0CFE48F0#00000000000001D5
(1468514639.634406) vcan0 0CF004F0#FFFFFF4023FFFFFF
(1468514639.634982) vcan0 0CFEF2F0#5000FFFFFFFFFFFF
(1468514639.635551) vcan0 0CFE45F0#F2CF80447FFFFFFF
(1468514639.636138) vcan0 0CFE11F0#7D7DF0FFFFFFFFFF
(1468514639.636723) vcan0 0CFE12F0#7D7DF0FFFFFFFFFF
(1468514639.637311) vcan0 0CFE13F0#7D7DF0FFFFFFFFFF
(1468514639.637895) vcan0 0CFE14F0#7D7DF0FFFFFFFFFF
(1468514639.638479) vcan0 0CFE15F0#7D7DF0FFFFFFFFFF
(1468514639.639062) vcan0 0CFE17F0#7D7DF0FFFFFFFFFF
(1468514639.639635) vcan0 0CACFFF0#CA7D11FFFFFFFFFF
(1468514639.640215) vcan0 0CF022F0#000000000000FFE1
(1468514639.642161) vcan0 0CCBF0F7#12008D00FFFFFFFF
(1468514639.642819) vcan0 0CCBF7F0#13008D0000000000
(1468514639.703503) vcan0 09F8022C#FFFC00000000FFFF
(1468514639.707249) vcan0 09F8032C#FFFF000000000000
(1468514639.733320) vcan0 1CE7FF80#230A0001FFFFFFFF
(1468514639.733894) vcan0 0CFE48F0#00000000000001D5
(1468514639.734472) vcan0 0CF004F0#FFFFFF3023FFFFFF
(1468514639.735049) vcan0 0CFEF2F0#5200FFFFFFFFFFFF
(1468514639.735616) vcan0 0CFE45F0#F2CF80447FFFFFFF
(1468514639.736211) vcan0 0CFE11F0#7D7DF0FFFFFFFFFF
(1468514639.736790) vcan0 0CFE12F0#7D7DF0FFFFFFFFFF
(1468514639.737377) vcan0 0CFE13F0#7D7DF0FFFFFFFFFF
(1468514639.737961) vcan0 0CFE14F0#7D7DF0FFFFFFFFFF
(1468514639.738545) vcan0 0CFE15F0#7D7DF0FFFFFFFFFF
(1468514639.739129) vcan0 0CFE17F0#7D7DF0FFFFFFFFFF
(1468514639.739700) vcan0 0CFE41F0#03030F3F0F0FFFFF
(1468514639.740265) vcan0 0CFE40F0#03030F3F0F0FFFFF
(1468514639.740837) vcan0 0CACFFF0#CA7D11FFFFFFFFFF
(1468514639.741418) vcan0 0CF022F0#000000000000FFE1
(1468514639.804453) vcan0 09F8022C#FFFC00000000FFFF
(1468514639.807594) vcan0 09F8032C#FFFF000000000000
(1468514639.835089) vcan0 1CE7FF80#230A0001FFFFFFFF
(1468514639.835666) vcan0 0CFE48F0#00000000000001D5
(1468514639.836245) vcan0 0CF004F0#FFFFFF3023FFFFFF
(1468514639.836823) vcan0 0CFEF2F0#4E00FFFFFFFFFFFF
(1468514639.837390) vcan0 0CFE45F0#F2CF80447FFFFFFF
(1468514639.837978) vcan0 0CFE11F0#7D7DF0FFFFFFFFFF
(1468514639.838562) vcan0 0CFE12F0#7D7DF0FFFFFFFFFF
(1468514639.839151) vcan0 0CFE13F0#7D7DF0FFFFFFFFFF
(1468514639.839735) vcan0 0CFE14F0#7D7DF0FFFFFFFFFF
(1468514639.840318) vcan0 0CFE15F0#7D7DF0FFFFFFFFFF
(1468514639.840903) vcan0 0CFE17F0#7D7DF0FFFFFFFFFF
(1468514639.841475) vcan0 0CACFFF0#CE7D11FFFFFFFFFF
(1468514639.842056) vcan0 0CF022F0#000000000000FFE1
(1468514639.903856) vcan0 09F8022C#FFFC00000000FFFF
(1468514639.906847) vcan0 09F8032C#FFFF000000000000
(1468514639.933323) vcan0 1CE7FF80#230A0001FFFFFFFF
(1468514639.933900) vcan0 0CFE48F0#00000000000001D5
(1468514639.934480) vcan0 0CF004F0#FFFFFF3023FFFFFF
(1468514639.935056) vcan0 0CFEF2F0#5000FFFFFFFFFFFF
(1468514639.935624) vcan0 0CFE45F0#F2CF80447FFFFFFF
(1468514639.936213) vcan0 0CFE11F0#7D7DF0FFFFFFFFFF
(1468514639.936797) vcan0 0CFE12F0#7D7DF0FFFFFFFFFF
(1468514639.937385) vcan0 0CFE13F0#7D7DF0FFFFFFFFFF
(1468514639.937969) vcan0 0CFE14F0#7D7DF0FFFFFFFFFF
(1468514639.938553) vcan0 0CFE15F0#7D7DF0FFFFFFFFFF
(1468514639.939137) vcan0 0CFE17F0#7D7DF0FFFFFFFFFF
(1468514639.939710) vcan0 0CACFFF0#CA7D11FFFFFFFFFF
(1468514639.940289) vcan0 0CF022F0#000000000000FFE1
(1468514640.004208) vcan0 09F8022C#FFFC00000000FFFF
(1468514640.006935) vcan0 09F8032C#FFFF000000000000
(1468514640.033333) vcan0 1CE72680#FF0003FFFFFFFFFF
(1468514640.033914) vcan0 1CE7FF80#230A0001FFFFFFFF
(1468514640.034494) vcan0 0CFE48F0#00000000000001D5
(1468514640.035071) vcan0 0CF004F0#FFFFFF2823FFFFFF
(1468514640.035646) vcan0 0CFEF2F0#4E00FFFFFFFFFFFF
(1468514640.036215) vcan0 0CFE45F0#F2CF80447FFFFFFF
(1468514640.036803) vcan0 0CFE11F0#7D7DF0FFFFFFFFFF
(1468514640.037387) vcan0 0CFE12F0#7D7DF0FFFFFFFFFF
(1468514640.037975) vcan0 0CFE13F0#7D7DF0FFFFFFFFFF
(1468514640.038559) vcan0 0CFE14F0#7D7DF0FFFFFFFFFF
(1468514640.039144) vcan0 0CFE15F0#7D7DF0FFFFFFFFFF
(1468514640.039727) vcan0 0CFE17F0#7D7DF0FFFFFFFFFF
(1468514640.040300) vcan0 0CACFFF0#CE7D11FFFFFFFFFF
(1468514640.040879) vcan0 0CF022F0#000000000000FFE1
(1468514640.053427) vcan0 1CE726F0#FF0003FFFFFFFFFF
(1468514640.105249) vcan0 09F8022C#FFFC00000000FFFF
(1468514640.107168) vcan0 09F8032C#FFFF000000000000
(1468514640.109132) vcan0 0DF8092C#6B4230B2CE170000
(1468514640.111790) vcan0 0DF8052C#A02BFF6B4230B2CE
(1468514640.115364) vcan0 0DF8052C#A117000000000000
(1468514640.117620) vcan0 0DF8052C#A200000000000000
(1468514640.121665) vcan0 0DF8052C#A300000000000000
(1468514640.123484) vcan0 0DF8052C#A40000000000FF00
(1468514640.127552) vcan0 0DF8052C#A500000000000000
(1468514640.129372) vcan0 0DF8052C#A60000FFFFFFFFFF
(1468514640.133346) vcan0 0DF9032C#FFFF00000000FFFF
(1468514640.133928) vcan0 1CE7FF80#230A0001FFFFFFFF
(1468514640.134508) vcan0 0CFE48F0#00000000000001D5
(1468514640.135087) vcan0 0CF004F0#FFFFFF3023FFFFFF
(1468514640.135665) vcan0 0CFEF2F0#5000FFFFFFFFFFFF
(1468514640.136232) vcan0 0CFE45F0#F2CF80447FFFFFFF
(1468514640.136821) vcan0 0CFE11F0#7D7DF0FFFFFFFFFF
(1468514640.137404) vcan0 0CFE12F0#7D7DF0FFFFFFFFFF
(1468514640.137993) vcan0 0CFE13F0#7D7DF0FFFFFFFFFF
(1468514640.138577) vcan0 0CFE14F0#7D7DF0FFFFFFFFFF
(1468514640.139161) vcan0 0CFE15F0#7D7DF0FFFFFFFFFF
(1468514640.139745) vcan0 0CFE17F0#7D7DF0FFFFFFFFFF
(1468514640.140318) vcan0 0CACFFF0#CA7D11FFFFFFFFFF
(1468514640.140902) vcan0 0CF022F0#000000000000FFE1
(1468514640.204909) vcan0 09F8022C#FFFC00000000FFFF
(1468514640.206972) vcan0 09F8032C#FFFF000000000000
(1468514640.235554) vcan0 1CE7FF80#230A0001FFFFFFFF
(1468514640.236128) vcan0 0CFE48F0#00000000000001D5
(1468514640.236712) vcan0 0CF004F0#FFFFFF3023FFFFFF
(1468514640.237283) vcan0 0CFEF2F0#4E00FFFFFFFFFFFF
(1468514640.237851) vcan0 0CFE45F0#F2CF80447FFFFFFF
(1468514640.238439) vcan0 0CFE11F0#7D7DF0FFFFFFFFFF
(1468514640.239022) vcan0 0CFE12F0#7D7DF0FFFFFFFFFF
(1468514640.239611) vcan0 0CFE13F0#7D7DF0FFFFFFFFFF
(1468514640.240195) vcan0 0CFE14F0#7D7DF0FFFFFFFFFF
(1468514640.240779) vcan0 0CFE15F0#7D7DF0FFFFFFFFFF
(1468514640.241363) vcan0 0CFE17F0#7D7DF0FFFFFFFFFF
(1468514640.241937) vcan0 0CACFFF0#CA7D11FFFFFFFFFF
(1468514640.242516) vcan0 0CF022F0#000000000000FFE1
(1468514640.276072) vcan0 1CE6FF26#FEFFFFFFFFFF00FF
(1468514640.301483) vcan0 0CCBFFF7#FEFFFFFF00000000
(1468514640.304057) vcan0 09F8022C#FFFC00000000FFFF
(1468514640.307310) vcan0 09F8032C#FFFF000000000000
(1468514640.314791) vcan0 0CCBF7F0#FFFFFFFF00000000
(1468514640.333437) vcan0 1CE7FF80#230A0001FFFFFFFF
(1468514640.333995) vcan0 0CFE48F0#00000000000001D5
(1468514640.334563) vcan0 0CF004F0#FFFFFF3823FFFFFF
(1468514640.335140) vcan0 0CFEF2F0#4E00FFFFFFFFFFFF
(1468514640.335707) vcan0 0CFE45F0#F2CF80447FFFFFFF
(1468514640.336295) vcan0 0CFE11F0#7D7DF0FFFFFFFFFF
(1468514640.336879) vcan0 0CFE12F0#7D7DF0FFFFFFFFFF
(1468514640.337467) vcan0 0CFE13F0#7D7DF0FFFFFFFFFF
(1468514640.338052) vcan0 0CFE14F0#7D7DF0FFFFFFFFFF
(1468514640.338635) vcan0 0CFE15F0#7D7DF0FFFFFFFFFF
(1468514640.339220) vcan0 0CFE17F0#7D7DF0FFFFFFFFFF
(1468514640.339791) vcan0 0CACFFF0#CE7D11FFFFFFFFFF
(1468514640.340372) vcan0 0CF022F0#000000000000FFE1
(1468514640.403657) vcan0 09F8022C#FFFC00000000FFFF
(1468514640.406846) vcan0 09F8032C#FFFF000000000000
(1468514640.433380) vcan0 1CE7FF80#230A0001FFFFFFFF
(1468514640.433957) vcan0 0CFE48F0#00000000000001D5
(1468514640.434529) vcan0 0CF004F0#FFFFFF4823FFFFFF
(1468514640.435105) vcan0 0CFEF2F0#4E00FFFFFFFFFFFF
(1468514640.435673) vcan0 0CFE45F0#F2CF80447FFFFFFF
(1468514640.436261) vcan0 0CFE11F0#7D7DF0FFFFFFFFFF
(1468514640.436846) vcan0 0CFE12F0#7D7DF0FFFFFFFFFF
(1468514640.437434) vcan0 0CFE13F0#7D7DF0FFFFFFFFFF
(1468514640.438018) vcan0 0CFE14F0#7D7DF0FFFFFFFFFF
(1468514640.438602) vcan0 0CFE15F0#7D7DF0FFFFFFFFFF
(1468514640.439186) vcan0 0CFE17F0#7D7DF0FFFFFFFFFF
(1468514640.439759) vcan0 0CACFFF0#CA7D11FFFFFFFFFF
(1468514640.440338) vcan0 0CF022F0#000000000000FFE1
(1468514640.503929) vcan0 09F8022C#FFFC00000000FFFF
(1468514640.506990) vcan0 09F8032C#FFFF000000000000
(1468514640.533318) vcan0 1CE7FF80#230A0001FFFFFFFF
(1468514640.533894) vcan0 0CFE48F0#00000000000001D5
(1468514640.534467) vcan0 0CF004F0#FFFFFF4023FFFFFF
(1468514640.535043) vcan0 0CFEF2F0#5200FFFFFFFFFFFF
(1468514640.535611) vcan0 0CFE45F0#F2CF80447FFFFFFF
(1468514640.536199) vcan0 0CFE11F0#7D7DF0FFFFFFFFFF
(1468514640.536783) vcan0 0CFE12F0#7D7DF0FFFFFFFFFF
(1468514640.537372) vcan0 0CFE13F0#7D7DF0FFFFFFFFFF
(1468514640.537955) vcan0 0CFE14F0#7D7DF0FFFFFFFFFF
(1468514640.538540) vcan0 0CFE15F0#7D7DF0FFFFFFFFFF
(1468514640.539124) vcan0 0CFE17F0#7D7DF0FFFFFFFFFF
(1468514640.539696) vcan0 0CACFFF0#CE7D11FFFFFFFFFF
(1468514640.540276) vcan0 0CF022F0#000000000000FFE1
(1468514640.604305) vcan0 09F8022C#FFFC00000000FFFF
(1468514640.608565) vcan0 09F8032C#FFFF000000000000
(1468514640.634969) vcan0 1CE7FF80#230A0001FFFFFFFF
(1468514640.635547) vcan0 0CFE48F0#00000000000001D5
(1468514640.636119) vcan0 0CF004F0#FFFFFF4023FFFFFF
(1468514640.636694) vcan0 0CFEF2F0#5000FFFFFFFFFFFF
(1468514640.637263) vcan0 0CFE45F0#F2CF80447FFFFFFF
(1468514640.637851) vcan0 0CFE11F0#7D7DF0FFFFFFFFFF
(1468514640.638435) vcan0 0CFE12F0#7D7DF0FFFFFFFFFF
(1468514640.639023) vcan0 0CFE13F0#7D7DF0FFFFFFFFFF
(1468514640.639607) vcan0 0CFE14F0#7D7DF0FFFFFFFFFF
(1468514640.640191) vcan0 0CFE15F0#7D7DF0FFFFFFFFFF
(1468514640.640775) vcan0 0CFE17F0#7D7DF0FFFFFFFFFF
(1468514640.641347) vcan0 0CACFFF0#CE7D11FFFFFFFFFF
(1468514640.641926) vcan0 0CF022F0#000000000000FFE1
(1468514640.677344) vcan0 0CCBF0F7#12008D00FFFFFFFF
(1468514640.678009) vcan0 0CCBF7F0#13008D0000000000
(1468514640.703802) vcan0 09F8022C#FFFC00000000FFFF
(1468514640.707467) vcan0 09F8032C#FFFF000000000000
(1468514640.733556) vcan0 1CE7FF80#230A0001FFFFFFFF
(1468514640.734088) vcan0 0CFE48F0#00000000000001D5
(1468514640.734659) vcan0 0CF004F0#FFFFFF3823FFFFFF
(1468514640.735221) vcan0 0CFEF2F0#5000FFFFFFFFFFFF
(1468514640.735805) vcan0 0CFE45F0#F2CF80447FFFFFFF
(1468514640.736389) vcan0 0CFE11F0#7D7DF0FFFFFFFFFF
(1468514640.736963) vcan0 0CFE12F0#7D7DF0FFFFFFFFFF
(1468514640.737566) vcan0 0CFE13F0#7D7DF0FFFFFFFFFF
(1468514640.738151) vcan0 0CFE14F0#7D7DF0FFFFFFFFFF
(1468514640.738715) vcan0 0CFE15F0#7D7DF0FFFFFFFFFF
(1468514640.739294) vcan0 0CFE17F0#7D7DF0FFFFFFFFFF
(1468514640.739869) vcan0 0CFE41F0#03030F3F0F0FFFFF
(1468514640.740425) vcan0 0CFE40F0#03030F3F0F0FFFFF
(1468514640.741001) vcan0 0CACFFF0#CE7D11FFFFFFFFFF
(1468514640.741648) vcan0 0CF022F0#000000000000FFE1
(1468514640.804214) vcan0 09F8022C#FFFC00000000FFFF
(1468514640.807075) vcan0 09F8032C#FFFF000000000000
(1468514640.833408) vcan0 1CE7FF80#230A0001FFFFFFFF
(1468514640.833918) vcan0 0CFE48F0#00000000000001D5
(1468514640.834508) vcan0 0CF004F0#FFFFFF2823FFFFFF
(1468514640.835086) vcan0 0CFEF2F0#4C00FFFFFFFFFFFF
(1468514640.835651) vcan0 0CFE45F0#F2CF80447FFFFFFF
(1468514640.836239) vcan0 0CFE11F0#7D7DF0FFFFFFFFFF
(1468514640.836837) vcan0 0CFE12F0#7D7DF0FFFFFFFFFF
(1468514640.837410) vcan0 0CFE13F0#7D7DF0FFFFFFFFFF
(1468514640.837994) vcan0 0CFE14F0#7D7DF0FFFFFFFFFF
(1468514640.838575) vcan0 0CFE15F0#7D7DF0FFFFFFFFFF
(1468514640.839160) vcan0 0CFE17F0#7D7DF0FFFFFFFFFF
(1468514640.839744) vcan0 0CACFFF0#CA7D11FFFFFFFFFF
(1468514640.840310) vcan0 0CF022F0#000000000000FFE1
(1468514640.904308) vcan0 09F8022C#FFFC00000000FFFF
(1468514640.907421) vcan0 09F8032C#FFFF000000000000
(1468514640.933552) vcan0 1CE7FF80#230A0001FFFFFFFF
(1468514640.934084) vcan0 0CFE48F0#00000000000001D5
(1468514640.934652) vcan0 0CF004F0#FFFFFF0823FFFFFF
(1468514640.935224) vcan0 0CFEF2F0#4600FFFFFFFFFFFF
(1468514640.935791) vcan0 0CFE45F0#F2CF80447FFFFFFF
(1468514640.936378) vcan0 0CFE11F0#7D7DF0FFFFFFFFFF
(1468514640.936963) vcan0 0CFE12F0#7D7DF0FFFFFFFFFF
(1468514640.937559) vcan0 0CFE13F0#7D7DF0FFFFFFFFFF
(1468514640.938141) vcan0 0CFE14F0#7D7DF0FFFFFFFFFF
(1468514640.938721) vcan0 0CFE15F0#7D7DF0FFFFFFFFFF
(1468514640.939298) vcan0 0CFE17F0#7D7DF0FFFFFFFFFF
(1468514640.939873) vcan0 0CACFFF0#CE7D11FFFFFFFFFF
(1468514640.940452) vcan0 0CF022F0#000000000000FFE1
(1468514641.004137) vcan0 09F8022C#FFFC00000000FFFF
(1468514641.007040) vcan0 09F8032C#FFFF000000000000
(1468514641.035115) vcan0 1CE72680#FF0003FFFFFFFFFF
(1468514641.035679) vcan0 1CE7FF80#230A0001FFFFFFFF
(1468514641.036257) vcan0 0CFE48F0#00000000000001D5
(1468514641.036826) vcan0 0CF004F0#FFFFFFD022FFFFFF
(1468514641.037417) vcan0 0CFEF2F0#4800FFFFFFFFFFFF
(1468514641.037985) vcan0 0CFE45F0#F2CF80447FFFFFFF
(1468514641.038566) vcan0 0CFE11F0#7D7DF0FFFFFFFFFF
(1468514641.039136) vcan0 0CFE12F0#7D7DF0FFFFFFFFFF
(1468514641.039721) vcan0 0CFE13F0#7D7DF0FFFFFFFFFF
(1468514641.040306) vcan0 0CFE14F0#7D7DF0FFFFFFFFFF
(1468514641.040888) vcan0 0CFE15F0#7D7DF0FFFFFFFFFF
(1468514641.041473) vcan0 0CFE17F0#7D7DF0FFFFFFFFFF
(1468514641.042061) vcan0 0CACFFF0#CE7D11FFFFFFFFFF
(1468514641.042628) vcan0 0CF022F0#000000000000FFE1
(1468514641.053496) vcan0 1CE726F0#FF0003FFFFFFFFFF
(1468514641.106042) vcan0 09F8022C#FFFC00000000FFFF
(1468514641.108089) vcan0 09F8032C#FFFF000000000000
(1468514641.111343) vcan0 0DF8092C#6B4240D9CE170000
(1468514641.114202) vcan0 0DF8052C#C02BFF6B4240D9CE
(1468514641.117112) vcan0 0DF8052C#C117000000000000
(1468514641.120376) vcan0 0DF8052C#C200000000000000
(1468514641.122429) vcan0 0DF8052C#C300000000000000
(1468514641.124471) vcan0 0DF8052C#C40000000000FF00
(1468514641.128557) vcan0 0DF8052C#C500000000000000
(1468514641.133471) vcan0 1CE7FF80#230A0001FFFFFFFF
(1468514641.134051) vcan0 0CFE48F0#00000000000001D5
(1468514641.134624) vcan0 0CF004F0#FFFFFFD022FFFFFF
(1468514641.135206) vcan0 0CFEF2F0#4800FFFFFFFFFFFF
(1468514641.135778) vcan0 0CFE45F0#F2CF80447FFFFFFF
(1468514641.136360) vcan0 0CFE11F0#7D7DF0FFFFFFFFFF
(1468514641.136944) vcan0 0CFE12F0#7D7DF0FFFFFFFFFF
(1468514641.137538) vcan0 0CFE13F0#7D7DF0FFFFFFFFFF
(1468514641.138117) vcan0 0CFE14F0#7D7DF0FFFFFFFFFF
(1468514641.138719) vcan0 0CFE15F0#7D7DF0FFFFFFFFFF
(1468514641.139282) vcan0 0CFE17F0#7D7DF0FFFFFFFFFF
(1468514641.139855) vcan0 0CACFFF0#CE7D11FFFFFFFFFF
(1468514641.140434) vcan0 0CF022F0#000000000000FFE1
(1468514641.141021) vcan0 0DF8052C#C60000FFFFFFFFFF
(1468514641.145949) vcan0 0DF9032C#FFFF00000000FFFF
(1468514641.204345) vcan0 09F8022C#FFFC00000000FFFF
(1468514641.207067) vcan0 09F8032C#FFFF000000000000
(1468514641.233366) vcan0 1CE7FF80#230A0001FFFFFFFF
(1468514641.233945) vcan0 0CFE48F0#00000000000001D5
(1468514641.234521) vcan0 0CF004F0#FFFFFFC822FFFFFF
(1468514641.235093) vcan0 0CFEF2F0#4A00FFFFFFFFFFFF
(1468514641.235669) vcan0 0CFE45F0#F2CF80447FFFFFFF
(1468514641.236249) vcan0 0CFE11F0#7D7DF0FFFFFFFFFF
(1468514641.236856) vcan0 0CFE12F0#7D7DF0FFFFFFFFFF
(1468514641.237421) vcan0 0CFE13F0#7D7DF0FFFFFFFFFF
(1468514641.238011) vcan0 0CFE14F0#7D7DF0FFFFFFFFFF
(1468514641.238596) vcan0 0CFE15F0#7D7DF0FFFFFFFFFF
(1468514641.239176) vcan0 0CFE17F0#7D7DF0FFFFFFFFFF
(1468514641.239745) vcan0 0CACFFF0#CE7D11FFFFFFFFFF
(1468514641.240325) vcan0 0CF022F0#000000000000FFE1
(1468514641.278736) vcan0 1CE6FF26#FEFFFFFFFFFF00FF
(1468514641.304701) vcan0 09F8022C#FFFC00000000FFFF
(1468514641.307416) vcan0 09F8032C#FFFF000000000000
(1468514641.333422) vcan0 1CE7FF80#230A0001FFFFFFFF
(1468514641.333998) vcan0 0CFE48F0#00000000000001D5
(1468514641.334568) vcan0 0CF004F0#FFFFFFD022FFFFFF
(1468514641.335156) vcan0 0CFEF2F0#4C00FFFFFFFFFFFF
(1468514641.335728) vcan0 0CFE45F0#F2CF80447FFFFFFF
(1468514641.336320) vcan0 0CFE11F0#7D7DF0FFFFFFFFFF
(1468514641.336896) vcan0 0CFE12F0#7D7DF0FFFFFFFFFF
(1468514641.337485) vcan0 0CFE13F0#7D7DF0FFFFFFFFFF
(1468514641.338066) vcan0 0CFE14F0#7D7DF0FFFFFFFFFF
(1468514641.338650) vcan0 0CFE15F0#7D7DF0FFFFFFFFFF
(1468514641.339235) vcan0 0CFE17F0#7D7DF0FFFFFFFFFF
(1468514641.339805) vcan0 0CACFFF0#CE7D11FFFFFFFFFF
(1468514641.340386) vcan0 0CF022F0#000000000000FFE1
(1468514641.403705) vcan0 09F8022C#FFFC00000000FFFF
(1468514641.407099) vcan0 09F8032C#FFFF000000000000
(1468514641.434657) vcan0 1CE7FF80#230A0001FFFFFFFF
(1468514641.435235) vcan0 0CFE48F0#00000000000001D5
(1468514641.435806) vcan0 0CF004F0#FFFFFFD022FFFFFF
(1468514641.436394) vcan0 0CFEF2F0#4C00FFFFFFFFFFFF
(1468514641.436972) vcan0 0CFE45F0#F2CF80447FFFFFFF
(1468514641.437549) vcan0 0CFE11F0#7D7DF0FFFFFFFFFF
(1468514641.438136) vcan0 0CFE12F0#7D7DF0FFFFFFFFFF
(1468514641.438719) vcan0 0CFE13F0#7D7DF0FFFFFFFFFF
(1468514641.439305) vcan0 0CFE14F0#7D7DF0FFFFFFFFFF
(1468514641.439888) vcan0 0CFE15F0#7D7DF0FFFFFFFFFF
(1468514641.440469) vcan0 0CFE17F0#7D7DF0FFFFFFFFFF
(1468514641.441044) vcan0 0CACFFF0#CE7D11FFFFFFFFFF
(1468514641.441627) vcan0 0CF022F0#000000000000FFE1
(1468514641.503733) vcan0 09F8022C#FFFC00000000FFFF
(1468514641.507444) vcan0 09F8032C#FFFF000000000000
(1468514641.533364) vcan0 1CE7FF80#230A0001FFFFFFFF
(1468514641.533941) vcan0 0CFE48F0#00000000000001D5
(1468514641.534528) vcan0 0CF004F0#FFFFFFC822FFFFFF
(1468514641.535118) vcan0 0CFEF2F0#4C00FFFFFFFFFFFF
(1468514641.535673) vcan0 0CFE45F0#F2CF80447FFFFFFF
(1468514641.536258) vcan0 0CFE11F0#7D7DF0FFFFFFFFFF
(1468514641.536845) vcan0 0CFE12F0#7D7DF0FFFFFFFFFF
(1468514641.537433) vcan0 0CFE13F0#7D7DF0FFFFFFFFFF
(1468514641.538021) vcan0 0CFE14F0#7D7DF0FFFFFFFFFF
(1468514641.538599) vcan0 0CFE15F0#7D7DF0FFFFFFFFFF
(1468514641.539182) vcan0 0CFE17F0#7D7DF0FFFFFFFFFF
(1468514641.539755) vcan0 0CACFFF0#CE7D11FFFFFFFFFF
(1468514641.540333) vcan0 0CF022F0#000000000000FFE1
(1468514641.603703) vcan0 09F8022C#FFFC00000000FFFF
(1468514641.606851) vcan0 09F8032C#FFFF000000000000
(1468514641.633325) vcan0 1CE7FF80#230A0001FFFFFFFF
(1468514641.633902) vcan0 0CFE48F0#00000000000001D5
(1468514641.634479) vcan0 0CF004F0#FFFFFFC822FFFFFF
(1468514641.635054) vcan0 0CFEF2F0#4E00FFFFFFFFFFFF
(1468514641.635627) vcan0 0CFE45F0#F2CF80447FFFFFFF
(1468514641.636215) vcan0 0CFE11F0#7D7DF0FFFFFFFFFF
(1468514641.636796) vcan0 0CFE12F0#7D7DF0FFFFFFFFFF
(1468514641.637384) vcan0 0CFE13F0#7D7DF0FFFFFFFFFF
(1468514641.637968) vcan0 0CFE14F0#7D7DF0FFFFFFFFFF
(1468514641.638561) vcan0 0CFE15F0#7D7DF0FFFFFFFFFF
(1468514641.639138) vcan0 0CFE17F0#7D7DF0FFFFFFFFFF
(1468514641.639714) vcan0 0CACFFF0#CE7D11FFFFFFFFFF
(1468514641.640287) vcan0 0CF022F0#000000000000FFE1
(1468514641.704063) vcan0 09F8022C#FFFC00000000FFFF
(1468514641.706970) vcan0 09F8032C#FFFF000000000000
(1468514641.716659) vcan0 0CCBF0F7#12008D00FFFFFFFF
(1468514641.717336) vcan0 0CCBF7F0#13008D0000000000
(1468514641.733364) vcan0 1CE7FF80#230A0001FFFFFFFF
(1468514641.733943) vcan0 0CFE48F0#00000000000001D5
(1468514641.734512) vcan0 0CF004F0#FFFFFFD022FFFFFF
(1468514641.735089) vcan0 0CFEF2F0#4A00FFFFFFFFFFFF
(1468514641.735661) vcan0 0CFE45F0#F2CF80447FFFFFFF
(1468514641.736245) vcan0 0CFE11F0#7D7DF0FFFFFFFFFF
(1468514641.736826) vcan0 0CFE12F0#7D7DF0FFFFFFFFFF
(1468514641.737415) vcan0 0CFE13F0#7D7DF0FFFFFFFFFF
(1468514641.737997) vcan0 0CFE14F0#7D7DF0FFFFFFFFFF
(1468514641.738580) vcan0 0CFE15F0#7D7DF0FFFFFFFFFF
(1468514641.739168) vcan0 0CFE17F0#7D7DF0FFFFFFFFFF
(1468514641.739736) vcan0 0CFE41F0#03030F3F0F0FFFFF
(1468514641.740304) vcan0 0CFE40F0#03030F3F0F0FFFFF
(1468514641.740874) vcan0 0CACFFF0#CA7D11FFFFFFFFFF
(1468514641.741454) vcan0 0CF022F0#000000000000FFE1
(1468514641.804406) vcan0 09F8022C#FFFC00000000FFFF
(1468514641.807206) vcan0 09F8032C#FFFF000000000000
(1468514641.833925) vcan0 1CE7FF80#230A0001FFFFFFFF
(1468514641.834504) vcan0 0CFE48F0#00000000000001D5
(1468514641.835077) vcan0 0CF004F0#FFFFFFD822FFFFFF
(1468514641.835674) vcan0 0CFEF2F0#4800FFFFFFFFFFFF
(1468514641.836227) vcan0 0CFE45F0#F2CF80447FFFFFFF
(1468514641.836817) vcan0 0CFE11F0#7D7DF0FFFFFFFFFF
(1468514641.837398) vcan0 0CFE12F0#7D7DF0FFFFFFFFFF
(1468514641.837985) vcan0 0CFE13F0#7D7DF0FFFFFFFFFF
(1468514641.838567) vcan0 0CFE14F0#7D7DF0FFFFFFFFFF
(1468514641.839153) vcan0 0CFE15F0#7D7DF0FFFFFFFFFF
(1468514641.839735) vcan0 0CFE17F0#7D7DF0FFFFFFFFFF
(1468514641.840306) vcan0 0CACFFF0#CA7D11FFFFFFFFFF
(1468514641.840888) vcan0 0CF022F0#000000000000FFE1
(1468514641.903729) vcan0 09F8022C#FFFC00000000FFFF
(1468514641.907506) vcan0 09F8032C#FFFF000000000000
(1468514641.933509) vcan0 1CE7FF80#230A0001FFFFFFFF
(1468514641.934082) vcan0 0CFE48F0#00000000000001D5
(1468514641.934664) vcan0 0CF004F0#FFFFFFE022FFFFFF
(1468514641.935252) vcan0 0CFEF2F0#4800FFFFFFFFFFFF
(1468514641.935813) vcan0 0CFE45F0#F2CF80447FFFFFFF
(1468514641.936401) vcan0 0CFE11F0#7D7DF0FFFFFFFFFF
(1468514641.936998) vcan0 0CFE12F0#7D7DF0FFFFFFFFFF
(1468514641.937573) vcan0 0CFE13F0#7D7DF0FFFFFFFFFF
(1468514641.938153) vcan0 0CFE14F0#7D7DF0FFFFFFFFFF
(1468514641.938739) vcan0 0CFE15F0#7D7DF0FFFFFFFFFF
(1468514641.939321) vcan0 0CFE17F0#7D7DF0FFFFFFFFFF
(1468514641.939893) vcan0 0CACFFF0#CE7D11FFFFFFFFFF
(1468514641.940475) vcan0 0CF022F0#000000000000FFE1
(1468514642.003986) vcan0 09F8022C#FFFC00000000FFFF
(1468514642.007162) vcan0 09F8032C#FFFF000000000000
(1468514642.033445) vcan0 1CE72680#FF0003FFFFFFFFFF
(1468514642.034024) vcan0 1CE7FF80#230A0001FFFFFFFF
(1468514642.034602) vcan0 0CFE48F0#00000000000001D5
(1468514642.035177) vcan0 0CF004F0#FFFFFFD022FFFFFF
(1468514642.035761) vcan0 0CFEF2F0#4C00FFFFFFFFFFFF
(1468514642.036333) vcan0 0CFE45F0#F2CF80447FFFFFFF
(1468514642.036920) vcan0 0CFE11F0#7D7DF0FFFFFFFFFF
(1468514642.037500) vcan0 0CFE12F0#7D7DF0FFFFFFFFFF
(1468514642.038089) vcan0 0CFE13F0#7D7DF0FFFFFFFFFF
(1468514642.038671) vcan0 0CFE14F0#7D7DF0FFFFFFFFFF
(1468514642.039257) vcan0 0CFE15F0#7D7DF0FFFFFFFFFF
(1468514642.039840) vcan0 0CFE17F0#7D7DF0FFFFFFFFFF
(1468514642.040413) vcan0 0CACFFF0#CA7D11FFFFFFFFFF
(1468514642.040992) vcan0 0CF022F0#000000000000FFE1
(1468514642.053455) vcan0 1CE726F0#FF0003FFFFFFFFFF
(1468514642.104620) vcan0 09F8022C#FFFC00000000FFFF
(1468514642.106772) vcan0 09F8032C#FFFF000000000000
(1468514642.108736) vcan0 0DF8092C#6B425000CF170000
(1468514642.112225) vcan0 0DF8052C#E02BFF6B425000CF
(1468514642.114214) vcan0 0DF8052C#E117000000000000
(1468514642.116834) vcan0 0DF8052C#E200000000000000
(1468514642.119015) vcan0 0DF8052C#E300000000000000
(1468514642.122497) vcan0 0DF8052C#E40000000000FF00
(1468514642.124339) vcan0 0DF8052C#E500000000000000
(1468514642.127990) vcan0 0DF8052C#E60000FFFFFFFFFF
(1468514642.132259) vcan0 0DF9032C#FFFF00000000FFFF
(1468514642.133405) vcan0 1CE7FF80#230A0001FFFFFFFF
(1468514642.133981) vcan0 0CFE48F0#00000000000001D5
(1468514642.134554) vcan0 0CF004F0#FFFFFFC822FFFFFF
(1468514642.135132) vcan0 0CFEF2F0#5000FFFFFFFFFFFF
(1468514642.135705) vcan0 0CFE45F0#F2CF80447FFFFFFF
(1468514642.136288) vcan0 0CFE11F0#7D7DF0FFFFFFFFFF
(1468514642.136871) vcan0 0CFE12F0#7D7DF0FFFFFFFFFF
(1468514642.137457) vcan0 0CFE13F0#7D7DF0FFFFFFFFFF
(1468514642.138044) vcan0 0CFE14F0#7D7DF0FFFFFFFFFF
(1468514642.138626) vcan0 0CFE15F0#7D7DF0FFFFFFFFFF
(1468514642.139212) vcan0 0CFE17F0#7D7DF0FFFFFFFFFF
(1468514642.139782) vcan0 0CACFFF0#CE7D11FFFFFFFFFF
(1468514642.140360) vcan0 0CF022F0#000000000000FFE1
(1468514642.203929) vcan0 09F8022C#FFFC00000000FFFF
(1468514642.206938) vcan0 09F8032C#FFFF000000000000
(1468514642.234807) vcan0 1CE7FF80#230A0001FFFFFFFF
(1468514642.235385) vcan0 0CFE48F0#00000000000001D5
(1468514642.235954) vcan0 0CF004F0#FFFFFFD022FFFFFF
(1468514642.236535) vcan0 0CFEF2F0#4E00FFFFFFFFFFFF
(1468514642.237104) vcan0 0CFE45F0#F2CF80447FFFFFFF
(1468514642.237692) vcan0 0CFE11F0#7D7DF0FFFFFFFFFF
(1468514642.238273) vcan0 0CFE12F0#7D7DF0FFFFFFFFFF
(1468514642.238862) vcan0 0CFE13F0#7D7DF0FFFFFFFFFF
(1468514642.239444) vcan0 0CFE14F0#7D7DF0FFFFFFFFFF
(1468514642.240027) vcan0 0CFE15F0#7D7DF0FFFFFFFFFF
(1468514642.240612) vcan0 0CFE17F0#7D7DF0FFFFFFFFFF
(1468514642.241182) vcan0 0CACFFF0#CA7D11FFFFFFFFFF
(1468514642.241766) vcan0 0CF022F0#000000000000FFE1
(1468514642.256721) vcan0 0CCBFFF7#FEFFFFFF00000000
(1468514642.273513) vcan0 0CCBF7F0#FFFFFFFF00000000
(1468514642.280892) vcan0 1CE6FF26#FEFFFFFFFFFF00FF
(1468514642.304838) vcan0 09F8022C#FFFC00000000FFFF
(1468514642.306771) vcan0 09F8032C#FFFF000000000000
(1468514642.333513) vcan0 1CE7FF80#230A0001FFFFFFFF
(1468514642.334091) vcan0 0CFE48F0#00000000000001D5
(1468514642.334663) vcan0 0CF004F0#FFFFFFD822FFFFFF
(1468514642.335240) vcan0 0CFEF2F0#4E00FFFFFFFFFFFF
(1468514642.335808) vcan0 0CFE45F0#F2CF80447FFFFFFF
(1468514642.336396) vcan0 0CFE11F0#7D7DF0FFFFFFFFFF
(1468514642.336980) vcan0 0CFE12F0#7D7DF0FFFFFFFFFF
(1468514642.337564) vcan0 0CFE13F0#7D7DF0FFFFFFFFFF
(1468514642.338150) vcan0 0CFE14F0#7D7DF0FFFFFFFFFF
(1468514642.338734) vcan0 0CFE15F0#7D7DF0FFFFFFFFFF
(1468514642.339318) vcan0 0CFE17F0#7D7DF0FFFFFFFFFF
(1468514642.339890) vcan0 0CACFFF0#CE7D11FFFFFFFFFF
(1468514642.340472) vcan0 0CF022F0#000000000000FFE1
(1468514642.403585) vcan0 09F8022C#FFFC00000000FFFF
(1468514642.407185) vcan0 09F8032C#FFFF000000000000
(1468514642.433378) vcan0 1CE7FF80#230A0001FFFFFFFF
(1468514642.433952) vcan0 0CFE48F0#00000000000001D5
(1468514642.434526) vcan0 0CF004F0#FFFFFFC822FFFFFF
(1468514642.435102) vcan0 0CFEF2F0#4A00FFFFFFFFFFFF
(1468514642.435673) vcan0 0CFE45F0#F2CF80447FFFFFFF
(1468514642.436257) vcan0 0CFE11F0#7D7DF0FFFFFFFFFF
(1468514642.436841) vcan0 0CFE12F0#7D7DF0FFFFFFFFFF
(1468514642.437428) vcan0 0CFE13F0#7D7DF0FFFFFFFFFF
(1468514642.438015) vcan0 0CFE14F0#7D7DF0FFFFFFFFFF
(1468514642.438597) vcan0 0CFE15F0#7D7DF0FFFFFFFFFF
(1468514642.439181) vcan0 0CFE17F0#7D7DF0FFFFFFFFFF
(1468514642.439757) vcan0 0CACFFF0#CE7D11FFFFFFFFFF
(1468514642.440336) vcan0 0CF022F0#000000000000FFE1
(1468514642.504139) vcan0 09F8022C#FFFC00000000FFFF
(1468514642.509048) vcan0 09F8032C#FFFF000000000000
(1468514642.533416) vcan0 1CE7FF80#230A0001FFFFFFFF
(1468514642.533956) vcan0 0CFE48F0#00000000000001D5
(1468514642.534521) vcan0 0CF004F0#FFFFFFD822FFFFFF
(1468514642.535091) vcan0 0CFEF2F0#4A00FFFFFFFFFFFF
(1468514642.535659) vcan0 0CFE45F0#F2CF80447FFFFFFF
(1468514642.536247) vcan0 0CFE11F0#7D7DF0FFFFFFFFFF
(1468514642.536831) vcan0 0CFE12F0#7D7DF0FFFFFFFFFF
(1468514642.537418) vcan0 0CFE13F0#7D7DF0FFFFFFFFFF
(1468514642.538003) vcan0 0CFE14F0#7D7DF0FFFFFFFFFF
(1468514642.538587) vcan0 0CFE15F0#7D7DF0FFFFFFFFFF
(1468514642.539171) vcan0 0CFE17F0#7D7DF0FFFFFFFFFF
(1468514642.539743) vcan0 0CACFFF0#CE7D11FFFFFFFFFF
(1468514642.540323) vcan0 0CF022F0#000000000000FFE1
(1468514642.604184) vcan0 09F8022C#FFFC00000000FFFF
(1468514642.608115) vcan0 09F8032C#FFFF000000000000
(1468514642.635651) vcan0 1CE7FF80#230A0001FFFFFFFF
(1468514642.636230) vcan0 0CFE48F0#00000000000001D5
(1468514642.636810) vcan0 0CF004F0#FFFFFFD022FFFFFF
(1468514642.637389) vcan0 0CFEF2F0#4C00FFFFFFFFFFFF
(1468514642.637954) vcan0 0CFE45F0#F2CF80447FFFFFFF
(1468514642.638542) vcan0 0CFE11F0#7D7DF0FFFFFFFFFF
(1468514642.639125) vcan0 0CFE12F0#7D7DF0FFFFFFFFFF
(1468514642.639714) vcan0 0CFE13F0#7D7DF0FFFFFFFFFF
(1468514642.640297) vcan0 0CFE14F0#7D7DF0FFFFFFFFFF
(1468514642.640883) vcan0 0CFE15F0#7D7DF0FFFFFFFFFF
(1468514642.641466) vcan0 0CFE17F0#7D7DF0FFFFFFFFFF
(1468514642.642037) vcan0 0CACFFF0#CE7D11FFFFFFFFFF
(1468514642.642618) vcan0 0CF022F0#000000000000FFE1
(1468514642.703728) vcan0 09F8022C#FFFC00000000FFFF
(1468514642.707555) vcan0 09F8032C#FFFF000000000000
(1468514642.733655) vcan0 1CE7FF80#230A0001FFFFFFFF
(1468514642.734233) vcan0 0CFE48F0#00000000000001D5
(1468514642.734804) vcan0 0CF004F0#FFFFFFD822FFFFFF
(1468514642.735387) vcan0 0CFEF2F0#4C00FFFFFFFFFFFF
(1468514642.735955) vcan0 0CFE45F0#F2CF80447FFFFFFF
(1468514642.736543) vcan0 0CFE11F0#7D7DF0FFFFFFFFFF
(1468514642.737128) vcan0 0CFE12F0#7D7DF0FFFFFFFFFF
(1468514642.737715) vcan0 0CFE13F0#7D7DF0FFFFFFFFFF
(1468514642.738300) vcan0 0CFE14F0#7D7DF0FFFFFFFFFF
(1468514642.738884) vcan0 0CFE15F0#7D7DF0FFFFFFFFFF
(1468514642.739467) vcan0 0CFE17F0#7D7DF0FFFFFFFFFF
(1468514642.740040) vcan0 0CFE41F0#03030F3F0F0FFFFF
(1468514642.740604) vcan0 0CFE40F0#03030F3F0F0FFFFF
(1468514642.741176) vcan0 0CACFFF0#CA7D11FFFFFFFFFF
(1468514642.741757) vcan0 0CF022F0#000000000000FFE1
(1468514642.752534) vcan0 0CCBF0F7#12008D00FFFFFFFF
(1468514642.754057) vcan0 0CCBF7F0#13008D0000000000
(1468514642.805879) vcan0 09F8022C#FFFC00000000FFFF
(1468514642.807919) vcan0 09F8032C#FFFF000000000000
(1468514642.833308) vcan0 1CE7FF80#230A0001FFFFFFFF
(1468514642.833886) vcan0 0CFE48F0#00000000000001D5
(1468514642.834457) vcan0 0CF004F0#FFFFFFD822FFFFFF
(1468514642.835042) vcan0 0CFEF2F0#4C00FFFFFFFFFFFF
(1468514642.835609) vcan0 0CFE45F0#F2CF80447FFFFFFF
(1468514642.836197) vcan0 0CFE11F0#7D7DF0FFFFFFFFFF
(1468514642.836781) vcan0 0CFE12F0#7D7DF0FFFFFFFFFF
(1468514642.837370) vcan0 0CFE13F0#7D7DF0FFFFFFFFFF
(1468514642.837954) vcan0 0CFE14F0#7D7DF0FFFFFFFFFF
(1468514642.838538) vcan0 0CFE15F0#7D7DF0FFFFFFFFFF
(1468514642.839122) vcan0 0CFE17F0#7D7DF0FFFFFFFFFF
(1468514642.839693) vcan0 0CACFFF0#CE7D11FFFFFFFFFF
(1468514642.840274) vcan0 0CF022F0#000000000000FFE1
(1468514642.904181) vcan0 09F8022C#FFFC00000000FFFF
(1468514642.906926) vcan0 09F8032C#FFFF000000000000
(1468514642.933349) vcan0 1CE7FF80#230A0001FFFFFFFF
(1468514642.933926) vcan0 0CFE48F0#00000000000001D5
(1468514642.934498) vcan0 0CF004F0#FFFFFFD022FFFFFF
(1468514642.935071) vcan0 0CFEF2F0#4A00FFFFFFFFFFFF
(1468514642.935639) vcan0 0CFE45F0#F2CF80447FFFFFFF
(1468514642.936227) vcan0 0CFE11F0#7D7DF0FFFFFFFFFF
(1468514642.936811) vcan0 0CFE12F0#7D7DF0FFFFFFFFFF
(1468514642.937399) vcan0 0CFE13F0#7D7DF0FFFFFFFFFF
(1468514642.937984) vcan0 0CFE14F0#7D7DF0FFFFFFFFFF
(1468514642.938568) vcan0 0CFE15F0#7D7DF0FFFFFFFFFF
(1468514642.939151) vcan0 0CFE17F0#7D7DF0FFFFFFFFFF
(1468514642.939724) vcan0 0CACFFF0#CA7D11FFFFFFFFFF
(1468514642.940304) vcan0 0CF022F0#000000000000FFE1
(1468514643.004522) vcan0 09F8022C#FFFC00000000FFFF
(1468514643.007237) vcan0 09F8032C#FFFF000000000000
(1468514643.034904) vcan0 1CE72680#FF0003FFFFFFFFFF
(1468514643.035485) vcan0 1CE7FF80#230A0001FFFFFFFF
(1468514643.036065) vcan0 0CFE48F0#00000000000001D5
(1468514643.036641) vcan0 0CF004F0#FFFFFFC822FFFFFF
(1468514643.037214) vcan0 0CFEF2F0#4A00FFFFFFFFFFFF
(1468514643.037782) vcan0 0CFE45F0#F2CF80447FFFFFFF
(1468514643.038369) vcan0 0CFE11F0#7D7DF0FFFFFFFFFF
(1468514643.038954) vcan0 0CFE12F0#7D7DF0FFFFFFFFFF
(1468514643.039542) vcan0 0CFE13F0#7D7DF0FFFFFFFFFF
(1468514643.040125) vcan0 0CFE14F0#7D7DF0FFFFFFFFFF
(1468514643.040710) vcan0 0CFE15F0#7D7DF0FFFFFFFFFF
(1468514643.041294) vcan0 0CFE17F0#7D7DF0FFFFFFFFFF
(1468514643.041867) vcan0 0CACFFF0#CA7D11FFFFFFFFFF
(1468514643.042446) vcan0 0CF022F0#000000000000FFE1
(1468514643.053684) vcan0 1CE726F0#FF0003FFFFFFFFFF
(1468514643.104959) vcan0 09F8022C#FFFC00000000FFFF
(1468514643.106930) vcan0 09F8032C#FFFF000000000000
(1468514643.108946) vcan0 0DF8092C#6B426027CF170000
(1468514643.111894) vcan0 0DF8052C#002BFF6B426027CF
(1468514643.115131) vcan0 0DF8052C#0117000000000000
(1468514643.117171) vcan0 0DF8052C#0200000000000000
(1468514643.119226) vcan0 0DF8052C#0300000000000000
(1468514643.121932) vcan0 0DF8052C#040000000000FF00
(1468514643.123750) vcan0 0DF8052C#0500000000000000
(1468514643.127554) vcan0 0DF8052C#060000FFFFFFFFFF
(1468514643.132435) vcan0 0DF9032C#FFFF00000000FFFF
(1468514643.133514) vcan0 1CE7FF80#230A0001FFFFFFFF
(1468514643.134094) vcan0 0CFE48F0#00000000000001D5
(1468514643.134666) vcan0 0CF004F0#FFFFFFD022FFFFFF
(1468514643.135247) vcan0 0CFEF2F0#4800FFFFFFFFFFFF
(1468514643.135815) vcan0 0CFE45F0#F2CF80447FFFFFFF
(1468514643.136403) vcan0 0CFE11F0#7D7DF0FFFFFFFFFF
(1468514643.136987) vcan0 0CFE12F0#7D7DF0FFFFFFFFFF
(1468514643.137576) vcan0 0CFE13F0#7D7DF0FFFFFFFFFF
(1468514643.138160) vcan0 0CFE14F0#7D7DF0FFFFFFFFFF
(1468514643.138743) vcan0 0CFE15F0#7D7DF0FFFFFFFFFF
(1468514643.139327) vcan0 0CFE17F0#7D7DF0FFFFFFFFFF
(1468514643.139900) vcan0 0CACFFF0#CE7D11FFFFFFFFFF
(1468514643.140480) vcan0 0CF022F0#000000000000FFE1
(1468514643.203950) vcan0 09F8022C#FFFC00000000FFFF
(1468514643.212150) vcan0 09F8032C#FFFF000000000000
(1468514643.233507) vcan0 1CE7FF80#230A0001FFFFFFFF
(1468514643.234085) vcan0 0CFE48F0#00000000000001D5
(1468514643.234656) vcan0 0CF004F0#FFFFFFD822FFFFFF
(1468514643.235236) vcan0 0CFEF2F0#4800FFFFFFFFFFFF
(1468514643.235804) vcan0 0CFE45F0#F2CF80447FFFFFFF
(1468514643.236393) vcan0 0CFE11F0#7D7DF0FFFFFFFFFF
(1468514643.236977) vcan0 0CFE12F0#7D7DF0FFFFFFFFFF
(1468514643.237566) vcan0 0CFE13F0#7D7DF0FFFFFFFFFF
(1468514643.238149) vcan0 0CFE14F0#7D7DF0FFFFFFFFFF
(1468514643.238733) vcan0 0CFE15F0#7D7DF0FFFFFFFFFF
(1468514643.239317) vcan0 0CFE17F0#7D7DF0FFFFFFFFFF
(1468514643.239889) vcan0 0CACFFF0#CE7D11FFFFFFFFFF
(1468514643.240469) vcan0 0CF022F0#000000000000FFE1
(1468514643.284398) vcan0 1CE6FF26#FEFFFFFFFFFF00FF
(1468514643.303543) vcan0 09F8022C#FFFC00000000FFFF
(1468514643.306824) vcan0 09F8032C#FFFF000000000000
(1468514643.333357) vcan0 1CE7FF80#230A0001FFFFFFFF
(1468514643.333932) vcan0 0CFE48F0#00000000000001D5
(1468514643.334507) vcan0 0CF004F0#FFFFFFE022FFFFFF
(1468514643.335092) vcan0 0CFEF2F0#4C00FFFFFFFFFFFF
(1468514643.335659) vcan0 0CFE45F0#F2CF80447FFFFFFF
(1468514643.336248) vcan0 0CFE11F0#7D7DF0FFFFFFFFFF
(1468514643.336831) vcan0 0CFE12F0#7D7DF0FFFFFFFFFF
(1468514643.337420) vcan0 0CFE13F0#7D7DF0FFFFFFFFFF
(1468514643.338003) vcan0 0CFE14F0#7D7DF0FFFFFFFFFF
(1468514643.338588) vcan0 0CFE15F0#7D7DF0FFFFFFFFFF
(1468514643.339171) vcan0 0CFE17F0#7D7DF0FFFFFFFFFF
(1468514643.339744) vcan0 0CACFFF0#CA7D11FFFFFFFFFF
(1468514643.340324) vcan0 0CF022F0#000000000000FFE1
(1468514643.403888) vcan0 09F8022C#FFFC00000000FFFF
(1468514643.406908) vcan0 09F8032C#FFFF000000000000
(1468514643.435071) vcan0 1CE7FF80#230A0001FFFFFFFF
(1468514643.435649) vcan0 0CFE48F0#00000000000001D5
(1468514643.436225) vcan0 0CF004F0#FFFFFFD822FFFFFF
(1468514643.436796) vcan0 0CFEF2F0#4E00FFFFFFFFFFFF
(1468514643.437363) vcan0 0CFE45F0#F2CF80447FFFFFFF
(1468514643.437952) vcan0 0CFE11F0#7D7DF0FFFFFFFFFF
(1468514643.438536) vcan0 0CFE12F0#7D7DF0FFFFFFFFFF
(1468514643.439124) vcan0 0CFE13F0#7D7DF0FFFFFFFFFF
(1468514643.439708) vcan0 0CFE14F0#7D7DF0FFFFFFFFFF
(1468514643.440292) vcan0 0CFE15F0#7D7DF0FFFFFFFFFF
(1468514643.440876) vcan0 0CFE17F0#7D7DF0FFFFFFFFFF
(1468514643.441448) vcan0 0CACFFF0#CE7D11FFFFFFFFFF
(1468514643.442031) vcan0 0CF022F0#000000000000FFE1
(1468514643.504236) vcan0 09F8022C#FFFC00000000FFFF
(1468514643.507085) vcan0 09F8032C#FFFF000000000000
(1468514643.533651) vcan0 1CE7FF80#230A0001FFFFFFFF
(1468514643.534228) vcan0 0CFE48F0#00000000000001D5
(1468514643.534800) vcan0 0CF004F0#FFFFFFD022FFFFFF
(1468514643.535377) vcan0 0CFEF2F0#4E00FFFFFFFFFFFF
(1468514643.535945) vcan0 0CFE45F0#F2CF80447FFFFFFF
(1468514643.536534) vcan0 0CFE11F0#7D7DF0FFFFFFFFFF
(1468514643.537117) vcan0 0CFE12F0#7D7DF0FFFFFFFFFF
(1468514643.537705) vcan0 0CFE13F0#7D7DF0FFFFFFFFFF
(1468514643.538290) vcan0 0CFE14F0#7D7DF0FFFFFFFFFF
(1468514643.538873) vcan0 0CFE15F0#7D7DF0FFFFFFFFFF
(1468514643.539457) vcan0 0CFE17F0#7D7DF0FFFFFFFFFF
(1468514643.540030) vcan0 0CACFFF0#CA7D11FFFFFFFFFF
(1468514643.540614) vcan0 0CF022F0#000000000000FFE1
(1468514643.603619) vcan0 09F8022C#FFFC00000000FFFF
(1468514643.607412) vcan0 09F8032C#FFFF000000000000
(1468514643.633385) vcan0 1CE7FF80#230A0001FFFFFFFF
(1468514643.633961) vcan0 0CFE48F0#00000000000001D5
(1468514643.634531) vcan0 0CF004F0#FFFFFFD022FFFFFF
(1468514643.635115) vcan0 0CFEF2F0#4C00FFFFFFFFFFFF
(1468514643.635683) vcan0 0CFE45F0#F2CF80447FFFFFFF
(1468514643.636271) vcan0 0CFE11F0#7D7DF0FFFFFFFFFF
(1468514643.636855) vcan0 0CFE12F0#7D7DF0FFFFFFFFFF
(1468514643.637443) vcan0 0CFE13F0#7D7DF0FFFFFFFFFF
(1468514643.638027) vcan0 0CFE14F0#7D7DF0FFFFFFFFFF
(1468514643.638611) vcan0 0CFE15F0#7D7DF0FFFFFFFFFF
(1468514643.639195) vcan0 0CFE17F0#7D7DF0FFFFFFFFFF
(1468514643.639767) vcan0 0CACFFF0#CE7D11FFFFFFFFFF
(1468514643.640347) vcan0 0CF022F0#000000000000FFE1
(1468514643.704022) vcan0 09F8022C#FFFC00000000FFFF
(1468514643.706988) vcan0 09F8032C#FFFF000000000000
(1468514643.733417) vcan0 1CE7FF80#230A0001FFFFFFFF
(1468514643.733990) vcan0 0CFE48F0#00000000000001D5
(1468514643.734561) vcan0 0CF004F0#FFFFFFD022FFFFFF
(1468514643.735145) vcan0 0CFEF2F0#4C00FFFFFFFFFFFF
(1468514643.735713) vcan0 0CFE45F0#F2CF80447FFFFFFF
(1468514643.736300) vcan0 0CFE11F0#7D7DF0FFFFFFFFFF
(1468514643.736885) vcan0 0CFE12F0#7D7DF0FFFFFFFFFF
(1468514643.737472) vcan0 0CFE13F0#7D7DF0FFFFFFFFFF
(1468514643.738056) vcan0 0CFE14F0#7D7DF0FFFFFFFFFF
(1468514643.738641) vcan0 0CFE15F0#7D7DF0FFFFFFFFFF
(1468514643.739225) vcan0 0CFE17F0#7D7DF0FFFFFFFFFF
(1468514643.739797) vcan0 0CFE41F0#03030F3F0F0FFFFF
(1468514643.740361) vcan0 0CFE40F0#03030F3F0F0FFFFF
(1468514643.740933) vcan0 0CACFFF0#CA7D11FFFFFFFFFF
(1468514643.741514) vcan0 0CF022F0#000000000000FFE1
(1468514643.787336) vcan0 0CCBF0F7#12008D00FFFFFFFF
(1468514643.789403) vcan0 0CCBF7F0#13008D0000000000
(1468514643.803637) vcan0 09F8022C#FFFC00000000FFFF
(1468514643.807343) vcan0 09F8032C#FFFF000000000000
(1468514643.834942) vcan0 1CE7FF80#230A0001FFFFFFFF
(1468514643.835517) vcan0 0CFE48F0#00000000000001D5
(1468514643.836088) vcan0 0CF004F0#FFFFFFD022FFFFFF
(1468514643.836671) vcan0 0CFEF2F0#4C00FFFFFFFFFFFF
(1468514643.837240) vcan0 0CFE45F0#F2CF80447FFFFFFF
(1468514643.837828) vcan0 0CFE11F0#7D7DF0FFFFFFFFFF
(1468514643.838411) vcan0 0CFE12F0#7D7DF0FFFFFFFFFF
(1468514643.838999) vcan0 0CFE13F0#7D7DF0FFFFFFFFFF
(1468514643.839584) vcan0 0CFE14F0#7D7DF0FFFFFFFFFF
(1468514643.840167) vcan0 0CFE15F0#7D7DF0FFFFFFFFFF
(1468514643.840751) vcan0 0CFE17F0#7D7DF0FFFFFFFFFF
(1468514643.841323) vcan0 0CACFFF0#CE7D11FFFFFFFFFF
(1468514643.841904) vcan0 0CF022F0#000000000000FFE1
(1468514643.903688) vcan0 09F8022C#FFFC00000000FFFF
(1468514643.906940) vcan0 09F8032C#FFFF000000000000
(1468514643.933390) vcan0 1CE7FF80#230A0001FFFFFFFF
(1468514643.933969) vcan0 0CFE48F0#00000000000001D5
(1468514643.934540) vcan0 0CF004F0#FFFFFFD022FFFFFF
(1468514643.935113) vcan0 0CFEF2F0#4A00FFFFFFFFFFFF
(1468514643.935680) vcan0 0CFE45F0#F2CF80447FFFFFFF
(1468514643.936269) vcan0 0CFE11F0#7D7DF0FFFFFFFFFF
(1468514643.936853) vcan0 0CFE12F0#7D7DF0FFFFFFFFFF
(1468514643.937442) vcan0 0CFE13F0#7D7DF0FFFFFFFFFF
(1468514643.938025) vcan0 0CFE14F0#7D7DF0FFFFFFFFFF
(1468514643.938610) vcan0 0CFE15F0#7D7DF0FFFFFFFFFF
(1468514643.939194) vcan0 0CFE17F0#7D7DF0FFFFFFFFFF
(1468514643.939765) vcan0 0CACFFF0#CE7D11FFFFFFFFFF
(1468514643.940346) vcan0 0CF022F0#000000000000FFE1
(1468514644.004172) vcan0 09F8022C#FFFC00000000FFFF
(1468514644.006839) vcan0 09F8032C#FFFF000000000000
(1468514644.033320) vcan0 1CE72680#FF0003FFFFFFFFFF
(1468514644.033903) vcan0 1CE7FF80#230A0001FFFFFFFF
(1468514644.034482) vcan0 0CFE48F0#00000000000001D5
(1468514644.035055) vcan0 0CF004F0#FFFFFFD022FFFFFF
(1468514644.035639) vcan0 0CFEF2F0#4C00FFFFFFFFFFFF
(1468514644.036206) vcan0 0CFE45F0#F2CF80447FFFFFFF
(1468514644.036795) vcan0 0CFE11F0#7D7DF0FFFFFFFFFF
(1468514644.037379) vcan0 0CFE12F0#7D7DF0FFFFFFFFFF
(1468514644.037967) vcan0 0CFE13F0#7D7DF0FFFFFFFFFF
(1468514644.038551) vcan0 0CFE14F0#7D7DF0FFFFFFFFFF
(1468514644.039135) vcan0 0CFE15F0#7D7DF0FFFFFFFFFF
(1468514644.039719) vcan0 0CFE17F0#7D7DF0FFFFFFFFFF
(1468514644.040292) vcan0 0CACFFF0#CE7D11FFFFFFFFFF
(1468514644.040891) vcan0 0CF022F0#000000000000FFE1
(1468514644.053362) vcan0 1CE726F0#FF0003FFFFFFFFFF
(1468514644.105127) vcan0 09F8022C#FFFC00000000FFFF
(1468514644.107597) vcan0 09F8032C#FFFF000000000000
(1468514644.109604) vcan0 0DF8092C#6B42704ECF170000
(1468514644.114514) vcan0 0DF8052C#202BFF6B42704ECF
(1468514644.117389) vcan0 0DF8052C#2117000000000000
(1468514644.121336) vcan0 0DF8052C#2200000000000000
(1468514644.123349) vcan0 0DF8052C#2300000000000000
(1468514644.125168) vcan0 0DF8052C#240000000000FF00
(1468514644.128124) vcan0 0DF8052C#2500000000000000
(1468514644.132973) vcan0 0DF8052C#260000FFFFFFFFFF
(1468514644.133556) vcan0 1CE7FF80#230A0001FFFFFFFF
(1468514644.134136) vcan0 0CFE48F0#00000000000001D5
(1468514644.134712) vcan0 0CF004F0#FFFFFFE022FFFFFF
(1468514644.135284) vcan0 0CFEF2F0#4A00FFFFFFFFFFFF
(1468514644.135852) vcan0 0CFE45F0#F2CF80447FFFFFFF
(1468514644.136440) vcan0 0CFE11F0#7D7DF0FFFFFFFFFF
(1468514644.137024) vcan0 0CFE12F0#7D7DF0FFFFFFFFFF
(1468514644.137613) vcan0 0CFE13F0#7D7DF0FFFFFFFFFF
(1468514644.138197) vcan0 0CFE14F0#7D7DF0FFFFFFFFFF
(1468514644.138781) vcan0 0CFE15F0#7D7DF0FFFFFFFFFF
(1468514644.139365) vcan0 0CFE17F0#7D7DF0FFFFFFFFFF
(1468514644.139937) vcan0 0CACFFF0#CA7D11FFFFFFFFFF
(1468514644.140517) vcan0 0CF022F0#000000000000FFE1
(1468514644.141105) vcan0 0DF9032C#FFFF00000000FFFF
(1468514644.203845) vcan0 09F8022C#FFFC00000000FFFF
(1468514644.207367) vcan0 09F8032C#FFFF000000000000
(1468514644.212879) vcan0 0CCBFFF7#FEFFFFFF00000000
(1468514644.234085) vcan0 1CE7FF80#230A0001FFFFFFFF
(1468514644.234715) vcan0 0CCBF7F0#FFFFFFFF00000000
(1468514644.235294) vcan0 0CFE48F0#00000000000001D5
(1468514644.235866) vcan0 0CF004F0#FFFFFFD022FFFFFF
(1468514644.236439) vcan0 0CFEF2F0#4A00FFFFFFFFFFFF
(1468514644.237007) vcan0 0CFE45F0#F2CF80447FFFFFFF
(1468514644.237596) vcan0 0CFE11F0#7D7DF0FFFFFFFFFF
(1468514644.238179) vcan0 0CFE12F0#7D7DF0FFFFFFFFFF
(1468514644.238767) vcan0 0CFE13F0#7D7DF0FFFFFFFFFF
(1468514644.239352) vcan0 0CFE14F0#7D7DF0FFFFFFFFFF
(1468514644.239936) vcan0 0CFE15F0#7D7DF0FFFFFFFFFF
(1468514644.240520) vcan0 0CFE17F0#7D7DF0FFFFFFFFFF
(1468514644.241091) vcan0 0CACFFF0#CE7D11FFFFFFFFFF
(1468514644.241673) vcan0 0CF022F0#000000000000FFE1
(1468514644.286148) vcan0 1CE6FF26#FEFFFFFFFFFF00FF
(1468514644.303651) vcan0 09F8022C#FFFC00000000FFFF
(1468514644.307061) vcan0 09F8032C#FFFF000000000000
(1468514644.333680) vcan0 1CE7FF80#230A0001FFFFFFFF
(1468514644.334254) vcan0 0CFE48F0#00000000000001D5
(1468514644.334830) vcan0 0CF004F0#FFFFFFC822FFFFFF
(1468514644.335402) vcan0 0CFEF2F0#4A00FFFFFFFFFFFF
(1468514644.335969) vcan0 0CFE45F0#F2CF80447FFFFFFF
(1468514644.336558) vcan0 0CFE11F0#7D7DF0FFFFFFFFFF
(1468514644.337143) vcan0 0CFE12F0#7D7DF0FFFFFFFFFF
(1468514644.337730) vcan0 0CFE13F0#7D7DF0FFFFFFFFFF
(1468514644.338313) vcan0 0CFE14F0#7D7DF0FFFFFFFFFF
(1468514644.338899) vcan0 0CFE15F0#7D7DF0FFFFFFFFFF
(1468514644.339482) vcan0 0CFE17F0#7D7DF0FFFFFFFFFF
(1468514644.340056) vcan0 0CACFFF0#CA7D11FFFFFFFFFF
(1468514644.340634) vcan0 0CF022F0#000000000000FFE1
(1468514644.403915) vcan0 09F8022C#FFFC00000000FFFF
(1468514644.408316) vcan0 09F8032C#FFFF000000000000
(1468514644.433325) vcan0 1CE7FF80#230A0001FFFFFFFF
(1468514644.433903) vcan0 0CFE48F0#00000000000001D5
(1468514644.434479) vcan0 0CF004F0#FFFFFFC822FFFFFF
(1468514644.435063) vcan0 0CFEF2F0#4C00FFFFFFFFFFFF
(1468514644.435631) vcan0 0CFE45F0#F2CF80447FFFFFFF
(1468514644.436219) vcan0 0CFE11F0#7D7DF0FFFFFFFFFF
(1468514644.436804) vcan0 0CFE12F0#7D7DF0FFFFFFFFFF
(1468514644.437392) vcan0 0CFE13F0#7D7DF0FFFFFFFFFF
(1468514644.437976) vcan0 0CFE14F0#7D7DF0FFFFFFFFFF
(1468514644.438560) vcan0 0CFE15F0#7D7DF0FFFFFFFFFF
(1468514644.439143) vcan0 0CFE17F0#7D7DF0FFFFFFFFFF
(1468514644.439716) vcan0 0CACFFF0#CE7D11FFFFFFFFFF
(1468514644.440296) vcan0 0CF022F0#000000000000FFE1
(1468514644.504011) vcan0 09F8022C#FFFC00000000FFFF
(1468514644.507832) vcan0 09F8032C#FFFF000000000000
(1468514644.533367) vcan0 1CE7FF80#230A0001FFFFFFFF
(1468514644.533946) vcan0 0CFE48F0#00000000000001D5
(1468514644.534521) vcan0 0CF004F0#FFFFFFC822FFFFFF
(1468514644.535105) vcan0 0CFEF2F0#4C00FFFFFFFFFFFF
(1468514644.535678) vcan0 0CFE45F0#F2CF80447FFFFFFF
(1468514644.536262) vcan0 0CFE11F0#7D7DF0FFFFFFFFFF
(1468514644.536846) vcan0 0CFE12F0#7D7DF0FFFFFFFFFF
(1468514644.537434) vcan0 0CFE13F0#7D7DF0FFFFFFFFFF
(1468514644.538018) vcan0 0CFE14F0#7D7DF0FFFFFFFFFF
(1468514644.538602) vcan0 0CFE15F0#7D7DF0FFFFFFFFFF
(1468514644.539186) vcan0 0CFE17F0#7D7DF0FFFFFFFFFF
(1468514644.539758) vcan0 0CACFFF0#CA7D11FFFFFFFFFF
(1468514644.540339) vcan0 0CF022F0#000000000000FFE1
(1468514644.604102) vcan0 09F8022C#FFFC00000000FFFF
(1468514644.606931) vcan0 09F8032C#FFFF000000000000
(1468514644.634618) vcan0 1CE7FF80#230A0001FFFFFFFF
(1468514644.635195) vcan0 0CFE48F0#00000000000001D5
(1468514644.635767) vcan0 0CF004F0#FFFFFFD022FFFFFF
(1468514644.636339) vcan0 0CFEF2F0#4A00FFFFFFFFFFFF
(1468514644.636908) vcan0 0CFE45F0#F2CF80447FFFFFFF
(1468514644.637496) vcan0 0CFE11F0#7D7DF0FFFFFFFFFF
(1468514644.638080) vcan0 0CFE12F0#7D7DF0FFFFFFFFFF
(1468514644.638668) vcan0 0CFE13F0#7D7DF0FFFFFFFFFF
(1468514644.639252) vcan0 0CFE14F0#7D7DF0FFFFFFFFFF
(1468514644.639837) vcan0 0CFE15F0#7D7DF0FFFFFFFFFF
(1468514644.640420) vcan0 0CFE17F0#7D7DF0FFFFFFFFFF
(1468514644.640993) vcan0 0CACFFF0#CE7D11FFFFFFFFFF
(1468514644.641600) vcan0 0CF022F0#000000000000FFE1
(1468514644.705384) vcan0 09F8022C#FFFC00000000FFFF
(1468514644.708449) vcan0 09F8032C#FFFF000000000000
(1468514644.733395) vcan0 1CE7FF80#230A0001FFFFFFFF
(1468514644.733971) vcan0 0CFE48F0#00000000000001D5
(1468514644.734546) vcan0 0CF004F0#FFFFFFE022FFFFFF
(1468514644.735117) vcan0 0CFEF2F0#4A00FFFFFFFFFFFF
(1468514644.735685) vcan0 0CFE45F0#F2CF80447FFFFFFF
(1468514644.736273) vcan0 0CFE11F0#7D7DF0FFFFFFFFFF
(1468514644.736858) vcan0 0CFE12F0#7D7DF0FFFFFFFFFF
(1468514644.737446) vcan0 0CFE13F0#7D7DF0FFFFFFFFFF
(1468514644.738030) vcan0 0CFE14F0#7D7DF0FFFFFFFFFF
(1468514644.738614) vcan0 0CFE15F0#7D7DF0FFFFFFFFFF
(1468514644.739198) vcan0 0CFE17F0#7D7DF0FFFFFFFFFF
(1468514644.739770) vcan0 0CFE41F0#03030F3F0F0FFFFF
(1468514644.740334) vcan0 0CFE40F0#03030F3F0F0FFFFF
(1468514644.740906) vcan0 0CACFFF0#CE7D11FFFFFFFFFF
(1468514644.741487) vcan0 0CF022F0#000000000000FFE1
(1468514644.804730) vcan0 09F8022C#FFFC00000000FFFF
(1468514644.807523) vcan0 09F8032C#FFFF000000000000
(1468514644.822302) vcan0 0CCBF0F7#12008D00FFFFFFFF
(1468514644.822959) vcan0 0CCBF7F0#13008D0000000000
(1468514644.833389) vcan0 1CE7FF80#230A0001FFFFFFFF
(1468514644.833968) vcan0 0CFE48F0#00000000000001D5
(1468514644.834543) vcan0 0CF004F0#FFFFFFE022FFFFFF
(1468514644.835120) vcan0 0CFEF2F0#4E00FFFFFFFFFFFF
(1468514644.835688) vcan0 0CFE45F0#F2CF80447FFFFFFF
(1468514644.836276) vcan0 0CFE11F0#7D7DF0FFFFFFFFFF
(1468514644.836860) vcan0 0CFE12F0#7D7DF0FFFFFFFFFF
(1468514644.837449) vcan0 0CFE13F0#7D7DF0FFFFFFFFFF
(1468514644.838032) vcan0 0CFE14F0#7D7DF0FFFFFFFFFF
(1468514644.838616) vcan0 0CFE15F0#7D7DF0FFFFFFFFFF
(1468514644.839200) vcan0 0CFE17F0#7D7DF0FFFFFFFFFF
(1468514644.839772) vcan0 0CACFFF0#CE7D11FFFFFFFFFF
(1468514644.840352) vcan0 0CF022F0#000000000000FFE1
(1468514644.903966) vcan0 09F8022C#FFFC00000000FFFF
(1468514644.907126) vcan0 09F8032C#FFFF000000000000
(1468514644.933432) vcan0 1CE7FF80#230A0001FFFFFFFF
(1468514644.934001) vcan0 0CFE48F0#00000000000001D5
(1468514644.934577) vcan0 0CF004F0#FFFFFFC822FFFFFF
(1468514644.935161) vcan0 0CFEF2F0#4C00FFFFFFFFFFFF
(1468514644.935730) vcan0 0CFE45F0#F2CF80447FFFFFFF
(1468514644.936317) vcan0 0CFE11F0#7D7DF0FFFFFFFFFF
(1468514644.936901) vcan0 0CFE12F0#7D7DF0FFFFFFFFFF
(1468514644.937489) vcan0 0CFE13F0#7D7DF0FFFFFFFFFF
(1468514644.938074) vcan0 0CFE14F0#7D7DF0FFFFFFFFFF
(1468514644.938658) vcan0 0CFE15F0#7D7DF0FFFFFFFFFF
(1468514644.939242) vcan0 0CFE17F0#7D7DF0FFFFFFFFFF
(1468514644.939814) vcan0 0CACFFF0#CE7D11FFFFFFFFFF
(1468514644.940394) vcan0 0CF022F0#000000000000FFE1
(1468514645.003637) vcan0 09F8022C#FFFC00000000FFFF
(1468514645.007472) vcan0 09F8032C#FFFF000000000000
(1468514645.035478) vcan0 1CE72680#FF0003FFFFFFFFFF
(1468514645.036059) vcan0 1CE7FF80#230A0001FFFFFFFF
(1468514645.036639) vcan0 0CFE48F0#00000000000001D5
(1468514645.037215) vcan0 0CF004F0#FFFFFFB022FFFFFF
(1468514645.037800) vcan0 0CFEF2F0#4C00FFFFFFFFFFFF
(1468514645.038367) vcan0 0CFE45F0#F2CF80447FFFFFFF
(1468514645.038959) vcan0 0CFE11F0#7D7DF0FFFFFFFFFF
(1468514645.039541) vcan0 0CFE12F0#7D7DF0FFFFFFFFFF
(1468514645.040128) vcan0 0CFE13F0#7D7DF0FFFFFFFFFF
(1468514645.040712) vcan0 0CFE14F0#7D7DF0FFFFFFFFFF
(1468514645.041297) vcan0 0CFE15F0#7D7DF0FFFFFFFFFF
(1468514645.041882) vcan0 0CFE17F0#7D7DF0FFFFFFFFFF
(1468514645.042453) vcan0 0CACFFF0#CA7D11FFFFFFFFFF
(1468514645.043033) vcan0 0CF022F0#000000000000FFE1
(1468514645.053367) vcan0 1CE726F0#FF0003FFFFFFFFFF
(1468514645.105832) vcan0 09F8022C#FFFC00000000FFFF
(1468514645.107825) vcan0 09F8032C#FFFF000000000000
(1468514645.109852) vcan0 0DF8092C#6B428075CF170000
(1468514645.111886) vcan0 0DF8052C#402BFF6B428075CF
(1468514645.113967) vcan0 0DF8052C#4117000000000000
(1468514645.116826) vcan0 0DF8052C#4200000000000000
(1468514645.119302) vcan0 0DF8052C#4300000000000000
(1468514645.122159) vcan0 0DF8052C#440000000000FF00
(1468514645.124199) vcan0 0DF8052C#4500000000000000
(1468514645.128286) vcan0 0DF8052C#460000FFFFFFFFFF
(1468514645.132442) vcan0 0DF9032C#FFFF00000000FFFF
(1468514645.133606) vcan0 1CE7FF80#230A0001FFFFFFFF
(1468514645.134186) vcan0 0CFE48F0#00000000000001D5
(1468514645.134761) vcan0 0CF004F0#FFFFFFC022FFFFFF
(1468514645.135346) vcan0 0CFEF2F0#4C00FFFFFFFFFFFF
(1468514645.135914) vcan0 0CFE45F0#F2CF80447FFFFFFF
(1468514645.136502) vcan0 0CFE11F0#7D7DF0FFFFFFFFFF
(1468514645.137087) vcan0 0CFE12F0#7D7DF0FFFFFFFFFF
(1468514645.137674) vcan0 0CFE13F0#7D7DF0FFFFFFFFFF
(1468514645.138258) vcan0 0CFE14F0#7D7DF0FFFFFFFFFF
(1468514645.138843) vcan0 0CFE15F0#7D7DF0FFFFFFFFFF
(1468514645.139427) vcan0 0CFE17F0#7D7DF0FFFFFFFFFF
(1468514645.139999) vcan0 0CACFFF0#CE7D11FFFFFFFFFF
(1468514645.140579) vcan0 0CF022F0#000000000000FFE1
(1468514645.204127) vcan0 09F8022C#FFFC00000000FFFF
(1468514645.206842) vcan0 09F8032C#FFFF000000000000
(1468514645.233443) vcan0 1CE7FF80#230A0001FFFFFFFF
(1468514645.234020) vcan0 0CFE48F0#00000000000001D5
(1468514645.234600) vcan0 0CF004F0#FFFFFFB822FFFFFF
(1468514645.235183) vcan0 0CFEF2F0#4C00FFFFFFFFFFFF
(1468514645.235752) vcan0 0CFE45F0#F2CF80447FFFFFFF
(1468514645.236340) vcan0 0CFE11F0#7D7DF0FFFFFFFFFF
(1468514645.236924) vcan0 0CFE12F0#7D7DF0FFFFFFFFFF
(1468514645.237513) vcan0 0CFE13F0#7D7DF0FFFFFFFFFF
(1468514645.238097) vcan0 0CFE14F0#7D7DF0FFFFFFFFFF
(1468514645.238681) vcan0 0CFE15F0#7D7DF0FFFFFFFFFF
(1468514645.239265) vcan0 0CFE17F0#7D7DF0FFFFFFFFFF
(1468514645.239837) vcan0 0CACFFF0#CA7D11FFFFFFFFFF
(1468514645.240416) vcan0 0CF022F0#000000000000FFE1
(1468514645.289086) vcan0 1CE6FF26#FEFFFFFFFFFF00FF
(1468514645.304425) vcan0 09F8022C#FFFC00000000FFFF
(1468514645.307158) vcan0 09F8032C#FFFF000000000000
(1468514645.333502) vcan0 1CE7FF80#230A0001FFFFFFFF
(1468514645.334079) vcan0 0CFE48F0#00000000000001D5
(1468514645.334655) vcan0 0CF004F0#FFFFFFC822FFFFFF
(1468514645.335231) vcan0 0CFEF2F0#4E00FFFFFFFFFFFF
(1468514645.335799) vcan0 0CFE45F0#F2CF80447FFFFFFF
(1468514645.336387) vcan0 0CFE11F0#7D7DF0FFFFFFFFFF
(1468514645.336970) vcan0 0CFE12F0#7D7DF0FFFFFFFFFF
(1468514645.337559) vcan0 0CFE13F0#7D7DF0FFFFFFFFFF
(1468514645.338143) vcan0 0CFE14F0#7D7DF0FFFFFFFFFF
(1468514645.338727) vcan0 0CFE15F0#7D7DF0FFFFFFFFFF
(1468514645.339311) vcan0 0CFE17F0#7D7DF0FFFFFFFFFF
(1468514645.339883) vcan0 0CACFFF0#CA7D11FFFFFFFFFF
(1468514645.340463) vcan0 0CF022F0#000000000000FFE1
(1468514645.403788) vcan0 09F8022C#FFFC00000000FFFF
(1468514645.407561) vcan0 09F8032C#FFFF000000000000
(1468514645.435923) vcan0 1CE7FF80#230A0001FFFFFFFF
(1468514645.436500) vcan0 0CFE48F0#00000000000001D5
(1468514645.437077) vcan0 0CF004F0#FFFFFFC022FFFFFF
(1468514645.437649) vcan0 0CFEF2F0#4A00FFFFFFFFFFFF
(1468514645.438217) vcan0 0CFE45F0#F2CF80447FFFFFFF
(1468514645.438804) vcan0 0CFE11F0#7D7DF0FFFFFFFFFF
(1468514645.439389) vcan0 0CFE12F0#7D7DF0FFFFFFFFFF
(1468514645.439977) vcan0 0CFE13F0#7D7DF0FFFFFFFFFF
(1468514645.440561) vcan0 0CFE14F0#7D7DF0FFFFFFFFFF
(1468514645.441145) vcan0 0CFE15F0#7D7DF0FFFFFFFFFF
(1468514645.441731) vcan0 0CFE17F0#7D7DF0FFFFFFFFFF
(1468514645.442301) vcan0 0CACFFF0#CA7D11FFFFFFFFFF
(1468514645.442881) vcan0 0CF022F0#000000000000FFE1
(1468514645.504113) vcan0 09F8022C#FFFC00000000FFFF
(1468514645.507184) vcan0 09F8032C#FFFF000000000000
(1468514645.533410) vcan0 1CE7FF80#230A0001FFFFFFFF
(1468514645.533987) vcan0 0CFE48F0#00000000000001D5
(1468514645.534563) vcan0 0CF004F0#FFFFFFC822FFFFFF
(1468514645.535138) vcan0 0CFEF2F0#4E00FFFFFFFFFFFF
(1468514645.535707) vcan0 0CFE45F0#F2CF80447FFFFFFF
(1468514645.536295) vcan0 0CFE11F0#7D7DF0FFFFFFFFFF
(1468514645.536879) vcan0 0CFE12F0#7D7DF0FFFFFFFFFF
(1468514645.537467) vcan0 0CFE13F0#7D7DF0FFFFFFFFFF
(1468514645.538051) vcan0 0CFE14F0#7D7DF0FFFFFFFFFF
(1468514645.538635) vcan0 0CFE15F0#7D7DF0FFFFFFFFFF
(1468514645.539219) vcan0 0CFE17F0#7D7DF0FFFFFFFFFF
(1468514645.539791) vcan0 0CACFFF0#CE7D11FFFFFFFFFF
(1468514645.540371) vcan0 0CF022F0#000000000000FFE1
(1468514645.603875) vcan0 09F8022C#FFFC00000000FFFF
(1468514645.607524) vcan0 09F8032C#FFFF000000000000
(1468514645.633503) vcan0 1CE7FF80#230A0001FFFFFFFF
(1468514645.634080) vcan0 0CFE48F0#00000000000001D5
(1468514645.634652) vcan0 0CF004F0#FFFFFFD022FFFFFF
(1468514645.635237) vcan0 0CFEF2F0#4C00FFFFFFFFFFFF
(1468514645.635804) vcan0 0CFE45F0#F2CF80447FFFFFFF
(1468514645.636393) vcan0 0CFE11F0#7D7DF0FFFFFFFFFF
(1468514645.636977) vcan0 0CFE12F0#7D7DF0FFFFFFFFFF
(1468514645.637566) vcan0 0CFE13F0#7D7DF0FFFFFFFFFF
(1468514645.638149) vcan0 0CFE14F0#7D7DF0FFFFFFFFFF
(1468514645.638734) vcan0 0CFE15F0#7D7DF0FFFFFFFFFF
(1468514645.639317) vcan0 0CFE17F0#7D7DF0FFFFFFFFFF
(1468514645.639889) vcan0 0CACFFF0#CA7D11FFFFFFFFFF
(1468514645.640469) vcan0 0CF022F0#000000000000FFE1
(1468514645.703968) vcan0 09F8022C#FFFC00000000FFFF
(1468514645.706838) vcan0 09F8032C#FFFF000000000000
(1468514645.733395) vcan0 1CE7FF80#230A0001FFFFFFFF
(1468514645.733972) vcan0 0CFE48F0#00000000000001D5
(1468514645.734547) vcan0 0CF004F0#FFFFFFC022FFFFFF
(1468514645.735131) vcan0 0CFEF2F0#4C00FFFFFFFFFFFF
(1468514645.735699) vcan0 0CFE45F0#F2CF80447FFFFFFF
(1468514645.736287) vcan0 0CFE11F0#7D7DF0FFFFFFFFFF
(1468514645.736871) vcan0 0CFE12F0#7D7DF0FFFFFFFFFF
(1468514645.737459) vcan0 0CFE13F0#7D7DF0FFFFFFFFFF
(1468514645.738043) vcan0 0CFE14F0#7D7DF0FFFFFFFFFF
(1468514645.738627) vcan0 0CFE15F0#7D7DF0FFFFFFFFFF
(1468514645.739212) vcan0 0CFE17F0#7D7DF0FFFFFFFFFF
(1468514645.739784) vcan0 0CFE41F0#03030F3F0F0FFFFF
(1468514645.740348) vcan0 0CFE40F0#03030F3F0F0FFFFF
(1468514645.740920) vcan0 0CACFFF0#CE7D11FFFFFFFFFF
(1468514645.741501) vcan0 0CF022F0#000000000000FFE1
(1468514645.804140) vcan0 09F8022C#FFFC00000000FFFF
(1468514645.806893) vcan0 09F8032C#FFFF000000000000
(1468514645.835355) vcan0 1CE7FF80#230A0001FFFFFFFF
(1468514645.835932) vcan0 0CFE48F0#00000000000001D5
(1468514645.836513) vcan0 0CF004F0#FFFFFFB822FFFFFF
(1468514645.837097) vcan0 0CFEF2F0#4C00FFFFFFFFFFFF
(1468514645.837665) vcan0 0CFE45F0#F2CF80447FFFFFFF
(1468514645.838253) vcan0 0CFE11F0#7D7DF0FFFFFFFFFF
(1468514645.838837) vcan0 0CFE12F0#7D7DF0FFFFFFFFFF
(1468514645.839425) vcan0 0CFE13F0#7D7DF0FFFFFFFFFF
(1468514645.840010) vcan0 0CFE14F0#7D7DF0FFFFFFFFFF
(1468514645.840594) vcan0 0CFE15F0#7D7DF0FFFFFFFFFF
(1468514645.841178) vcan0 0CFE17F0#7D7DF0FFFFFFFFFF
(1468514645.841751) vcan0 0CACFFF0#CE7D11FFFFFFFFFF
(1468514645.842330) vcan0 0CF022F0#000000000000FFE1
(1468514645.856472) vcan0 0CCBF0F7#12008D00FFFFFFFF
(1468514645.857143) vcan0 0CCBF7F0#13008D0000000000
(1468514645.904492) vcan0 09F8022C#FFFC00000000FFFF
(1468514645.907220) vcan0 09F8032C#FFFF000000000000
(1468514645.933542) vcan0 1CE7FF80#230A0001FFFFFFFF
(1468514645.934120) vcan0 0CFE48F0#00000000000001D5
(1468514645.934695) vcan0 0CF004F0#FFFFFFC022FFFFFF
(1468514645.935280) vcan0 0CFEF2F0#4C00FFFFFFFFFFFF
(1468514645.935847) vcan0 0CFE45F0#F2CF80447FFFFFFF
(1468514645.936436) vcan0 0CFE11F0#7D7DF0FFFFFFFFFF
(1468514645.937020) vcan0 0CFE12F0#7D7DF0FFFFFFFFFF
(1468514645.937608) vcan0 0CFE13F0#7D7DF0FFFFFFFFFF
(1468514645.938192) vcan0 0CFE14F0#7D7DF0FFFFFFFFFF
(1468514645.938776) vcan0 0CFE15F0#7D7DF0FFFFFFFFFF
(1468514645.939359) vcan0 0CFE17F0#7D7DF0FFFFFFFFFF
(1468514645.939931) vcan0 0CACFFF0#CE7D11FFFFFFFFFF
(1468514645.940512) vcan0 0CF022F0#000000000000FFE1
(1468514646.003442) vcan0 09F8022C#FFFC00000000FFFF
(1468514646.005296) vcan0 09F8032C#FFFF000000000000
(1468514646.033498) vcan0 1CE72680#FF0003FFFFFFFFFF
(1468514646.034078) vcan0 1CE7FF80#230A0001FFFFFFFF
(1468514646.034657) vcan0 0CFE48F0#00000000000001D5
(1468514646.035233) vcan0 0CF004F0#FFFFFFC822FFFFFF
(1468514646.035817) vcan0 0CFEF2F0#4C00FFFFFFFFFFFF
(1468514646.036385) vcan0 0CFE45F0#F2CF80447FFFFFFF
(1468514646.036972) vcan0 0CFE11F0#7D7DF0FFFFFFFFFF
(1468514646.037557) vcan0 0CFE12F0#7D7DF0FFFFFFFFFF
(1468514646.038146) vcan0 0CFE13F0#7D7DF0FFFFFFFFFF
(1468514646.038729) vcan0 0CFE14F0#7D7DF0FFFFFFFFFF
(1468514646.039313) vcan0 0CFE15F0#7D7DF0FFFFFFFFFF
(1468514646.039897) vcan0 0CFE17F0#7D7DF0FFFFFFFFFF
(1468514646.040469) vcan0 0CACFFF0#CE7D11FFFFFFFFFF
(1468514646.041049) vcan0 0CF022F0#000000000000FFE1
(1468514646.053369) vcan0 1CE726F0#FF0003FFFFFFFFFF
(1468514646.105201) vcan0 09F8022C#FFFC00000000FFFF
(1468514646.107246) vcan0 09F8032C#FFFF000000000000
(1468514646.109254) vcan0 0DF8092C#6B42909CCF170000
(1468514646.113476) vcan0 0DF8052C#602BFF6B42909CCF
(1468514646.117462) vcan0 0DF8052C#6117000000000000
(1468514646.119530) vcan0 0DF8052C#6200000000000000
(1468514646.122259) vcan0 0DF8052C#6300000000000000
(1468514646.124074) vcan0 0DF8052C#640000000000FF00
(1468514646.127718) vcan0 0DF8052C#6500000000000000
(1468514646.129778) vcan0 0DF8052C#660000FFFFFFFFFF
(1468514646.133468) vcan0 1CE7FF80#230A0001FFFFFFFF
(1468514646.134046) vcan0 0CFE48F0#00000000000001D5
(1468514646.134619) vcan0 0CF004F0#FFFFFFD022FFFFFF
(1468514646.135190) vcan0 0CFEF2F0#4A00FFFFFFFFFFFF
(1468514646.135759) vcan0 0CFE45F0#F2CF80447FFFFFFF
(1468514646.136347) vcan0 0CFE11F0#7D7DF0FFFFFFFFFF
(1468514646.136931) vcan0 0CFE12F0#7D7DF0FFFFFFFFFF
(1468514646.137519) vcan0 0CFE13F0#7D7DF0FFFFFFFFFF
(1468514646.138103) vcan0 0CFE14F0#7D7DF0FFFFFFFFFF
(1468514646.138687) vcan0 0CFE15F0#7D7DF0FFFFFFFFFF
(1468514646.139271) vcan0 0CFE17F0#7D7DF0FFFFFFFFFF
(1468514646.139843) vcan0 0CACFFF0#CE7D11FFFFFFFFFF
(1468514646.140423) vcan0 0CF022F0#000000000000FFE1
(1468514646.141011) vcan0 0DF9032C#FFFF00000000FFFF
(1468514646.170657) vcan0 0CCBFFF7#FEFFFFFF00000000
(1468514646.173528) vcan0 0CCBF7F0#FFFFFFFF00000000
(1468514646.204199) vcan0 09F8022C#FFFC00000000FFFF
(1468514646.206841) vcan0 09F8032C#FFFF000000000000
(1468514646.234779) vcan0 1CE7FF80#230A0001FFFFFFFF
(1468514646.235356) vcan0 0CFE48F0#00000000000001D5
(1468514646.235932) vcan0 0CF004F0#FFFFFFC822FFFFFF
(1468514646.236508) vcan0 0CFEF2F0#4E00FFFFFFFFFFFF
(1468514646.237077) vcan0 0CFE45F0#F2CF80447FFFFFFF
(1468514646.237665) vcan0 0CFE11F0#7D7DF0FFFFFFFFFF
(1468514646.238249) vcan0 0CFE12F0#7D7DF0FFFFFFFFFF
(1468514646.238837) vcan0 0CFE13F0#7D7DF0FFFFFFFFFF
(1468514646.239421) vcan0 0CFE14F0#7D7DF0FFFFFFFFFF
(1468514646.240006) vcan0 0CFE15F0#7D7DF0FFFFFFFFFF
(1468514646.240590) vcan0 0CFE17F0#7D7DF0FFFFFFFFFF
(1468514646.241161) vcan0 0CACFFF0#CA7D11FFFFFFFFFF
(1468514646.241743) vcan0 0CF022F0#000000000000FFE1
(1468514646.291410) vcan0 1CE6FF26#FEFFFFFFFFFF00FF
(1468514646.303850) vcan0 09F8022C#FFFC00000000FFFF
(1468514646.308299) vcan0 09F8032C#FFFF000000000000
(1468514646.333802) vcan0 1CE7FF80#230A0001FFFFFFFF
(1468514646.334380) vcan0 0CFE48F0#00000000000001D5
(1468514646.334956) vcan0 0CF004F0#FFFFFFC022FFFFFF
(1468514646.335531) vcan0 0CFEF2F0#4E00FFFFFFFFFFFF
(1468514646.336100) vcan0 0CFE45F0#F2CF80447FFFFFFF
(1468514646.336688) vcan0 0CFE11F0#7D7DF0FFFFFFFFFF
(1468514646.337272) vcan0 0CFE12F0#7D7DF0FFFFFFFFFF
(1468514646.337860) vcan0 0CFE13F0#7D7DF0FFFFFFFFFF
(1468514646.338444) vcan0 0CFE14F0#7D7DF0FFFFFFFFFF
(1468514646.339028) vcan0 0CFE15F0#7D7DF0FFFFFFFFFF
(1468514646.339612) vcan0 0CFE17F0#7D7DF0FFFFFFFFFF
(1468514646.340184) vcan0 0CACFFF0#CE7D11FFFFFFFFFF
(1468514646.340764) vcan0 0CF022F0#000000000000FFE1
(1468514646.404211) vcan0 09F8022C#FFFC00000000FFFF
(1468514646.408578) vcan0 09F8032C#FFFF000000000000
(1468514646.433492) vcan0 1CE7FF80#230A0001FFFFFFFF
(1468514646.434069) vcan0 0CFE48F0#00000000000001D5
(1468514646.434649) vcan0 0CF004F0#FFFFFFB822FFFFFF
(1468514646.435226) vcan0 0CFEF2F0#4E00FFFFFFFFFFFF
(1468514646.435794) vcan0 0CFE45F0#F2CF80447FFFFFFF
(1468514646.436381) vcan0 0CFE11F0#7D7DF0FFFFFFFFFF
(1468514646.436966) vcan0 0CFE12F0#7D7DF0FFFFFFFFFF
(1468514646.437556) vcan0 0CFE13F0#7D7DF0FFFFFFFFFF
(1468514646.438139) vcan0 0CFE14F0#7D7DF0FFFFFFFFFF
(1468514646.438722) vcan0 0CFE15F0#7D7DF0FFFFFFFFFF
(1468514646.439306) vcan0 0CFE17F0#7D7DF0FFFFFFFFFF
(1468514646.439878) vcan0 0CACFFF0#CE7D11FFFFFFFFFF
(1468514646.440458) vcan0 0CF022F0#000000000000FFE1
(1468514646.503758) vcan0 09F8022C#FFFC00000000FFFF
(1468514646.507387) vcan0 09F8032C#FFFF000000000000
(1468514646.533381) vcan0 1CE7FF80#230A0001FFFFFFFF
(1468514646.533959) vcan0 0CFE48F0#00000000000001D5
(1468514646.534536) vcan0 0CF004F0#FFFFFFC022FFFFFF
(1468514646.535119) vcan0 0CFEF2F0#4C00FFFFFFFFFFFF
(1468514646.535688) vcan0 0CFE45F0#F2CF80447FFFFFFF
(1468514646.536276) vcan0 0CFE11F0#7D7DF0FFFFFFFFFF
(1468514646.536860) vcan0 0CFE12F0#7D7DF0FFFFFFFFFF
(1468514646.537448) vcan0 0CFE13F0#7D7DF0FFFFFFFFFF
(1468514646.538031) vcan0 0CFE14F0#7D7DF0FFFFFFFFFF
(1468514646.538616) vcan0 0CFE15F0#7D7DF0FFFFFFFFFF
(1468514646.539200) vcan0 0CFE17F0#7D7DF0FFFFFFFFFF
(1468514646.539773) vcan0 0CACFFF0#CE7D11FFFFFFFFFF
(1468514646.540352) vcan0 0CF022F0#000000000000FFE1
(1468514646.603887) vcan0 09F8022C#FFFC00000000FFFF
(1468514646.607024) vcan0 09F8032C#FFFF000000000000
(1468514646.633991) vcan0 1CE7FF80#230A0001FFFFFFFF
(1468514646.634565) vcan0 0CFE48F0#00000000000001D5
(1468514646.635138) vcan0 0CF004F0#FFFFFFC022FFFFFF
(1468514646.635722) vcan0 0CFEF2F0#4C00FFFFFFFFFFFF
(1468514646.636290) vcan0 0CFE45F0#F2CF80447FFFFFFF
(1468514646.636879) vcan0 0CFE11F0#7D7DF0FFFFFFFFFF
(1468514646.637463) vcan0 0CFE12F0#7D7DF0FFFFFFFFFF
(1468514646.638051) vcan0 0CFE13F0#7D7DF0FFFFFFFFFF
(1468514646.638635) vcan0 0CFE14F0#7D7DF0FFFFFFFFFF
(1468514646.639219) vcan0 0CFE15F0#7D7DF0FFFFFFFFFF
(1468514646.639803) vcan0 0CFE17F0#7D7DF0FFFFFFFFFF
(1468514646.640375) vcan0 0CACFFF0#CA7D11FFFFFFFFFF
(1468514646.640955) vcan0 0CF022F0#000000000000FFE1
(1468514646.705265) vcan0 09F8022C#FFFC00000000FFFF
(1468514646.707308) vcan0 09F8032C#FFFF000000000000
(1468514646.733629) vcan0 1CE7FF80#230A0001FFFFFFFF
(1468514646.734206) vcan0 0CFE48F0#00000000000001D5
(1468514646.734781) vcan0 0CF004F0#FFFFFFC022FFFFFF
(1468514646.735364) vcan0 0CFEF2F0#4C00FFFFFFFFFFFF
(1468514646.735932) vcan0 0CFE45F0#F2CF80447FFFFFFF
(1468514646.736520) vcan0 0CFE11F0#7D7DF0FFFFFFFFFF
(1468514646.737104) vcan0 0CFE12F0#7D7DF0FFFFFFFFFF
(1468514646.737692) vcan0 0CFE13F0#7D7DF0FFFFFFFFFF
(1468514646.738276) vcan0 0CFE14F0#7D7DF0FFFFFFFFFF
(1468514646.738861) vcan0 0CFE15F0#7D7DF0FFFFFFFFFF
(1468514646.739445) vcan0 0CFE17F0#7D7DF0FFFFFFFFFF
(1468514646.740017) vcan0 0CFE41F0#03030F3F0F0FFFFF
(1468514646.740581) vcan0 0CFE40F0#03030F3F0F0FFFFF
(1468514646.741153) vcan0 0CACFFF0#CE7D11FFFFFFFFFF
(1468514646.741735) vcan0 0CF022F0#000000000000FFE1
(1468514646.803868) vcan0 09F8022C#FFFC00000000FFFF
(1468514646.807650) vcan0 09F8032C#FFFF000000000000
(1468514646.833450) vcan0 1CE7FF80#230A0001FFFFFFFF
(1468514646.834027) vcan0 0CFE48F0#00000000000001D5
(1468514646.834602) vcan0 0CF004F0#FFFFFFC022FFFFFF
(1468514646.835186) vcan0 0CFEF2F0#4C00FFFFFFFFFFFF
(1468514646.835754) vcan0 0CFE45F0#F2CF80447FFFFFFF
(1468514646.836342) vcan0 0CFE11F0#7D7DF0FFFFFFFFFF
(1468514646.836926) vcan0 0CFE12F0#7D7DF0FFFFFFFFFF
(1468514646.837514) vcan0 0CFE13F0#7D7DF0FFFFFFFFFF
(1468514646.838099) vcan0 0CFE14F0#7D7DF0FFFFFFFFFF
(1468514646.838683) vcan0 0CFE15F0#7D7DF0FFFFFFFFFF
(1468514646.839267) vcan0 0CFE17F0#7D7DF0FFFFFFFFFF
(1468514646.839839) vcan0 0CACFFF0#CE7D11FFFFFFFFFF
(1468514646.840419) vcan0 0CF022F0#000000000000FFE1
(1468514646.892288) vcan0 0CCBF0F7#12008D00FFFFFFFF
(1468514646.894529) vcan0 0CCBF7F0#13008D0000000000
(1468514646.903932) vcan0 09F8022C#FFFC00000000FFFF
(1468514646.906825) vcan0 09F8032C#FFFF000000000000
(1468514646.933490) vcan0 1CE7FF80#230A0001FFFFFFFF
(1468514646.934066) vcan0 0CFE48F0#00000000000001D5
(1468514646.934637) vcan0 0CF004F0#FFFFFFD022FFFFFF
(1468514646.935221) vcan0 0CFEF2F0#4C00FFFFFFFFFFFF
(1468514646.935789) vcan0 0CFE45F0#F2CF80447FFFFFFF
(1468514646.936377) vcan0 0CFE11F0#7D7DF0FFFFFFFFFF
(1468514646.936962) vcan0 0CFE12F0#7D7DF0FFFFFFFFFF
(1468514646.937549) vcan0 0CFE13F0#7D7DF0FFFFFFFFFF
(1468514646.938139) vcan0 0CFE14F0#7D7DF0FFFFFFFFFF
(1468514646.938717) vcan0 0CFE15F0#7D7DF0FFFFFFFFFF
(1468514646.939301) vcan0 0CFE17F0#7D7DF0FFFFFFFFFF
(1468514646.939874) vcan0 0CACFFF0#CA7D11FFFFFFFFFF
(1468514646.940454) vcan0 0CF022F0#000000000000FFE1
(1468514647.004478) vcan0 09F8022C#FFFC00000000FFFF
(1468514647.007491) vcan0 09F8032C#FFFF000000000000
(1468514647.034677) vcan0 1CE72680#FF0003FFFFFFFFFF
(1468514647.035258) vcan0 1CE7FF80#230A0001FFFFFFFF
(1468514647.035839) vcan0 0CFE48F0#00000000000001D5
(1468514647.036414) vcan0 0CF004F0#FFFFFFC822FFFFFF
(1468514647.036998) vcan0 0CFEF2F0#4C00FFFFFFFFFFFF
(1468514647.037570) vcan0 0CFE45F0#F2CF80447FFFFFFF
(1468514647.038155) vcan0 0CFE11F0#7D7DF0FFFFFFFFFF
(1468514647.038739) vcan0 0CFE12F0#7D7DF0FFFFFFFFFF
(1468514647.039327) vcan0 0CFE13F0#7D7DF0FFFFFFFFFF
(1468514647.039911) vcan0 0CFE14F0#7D7DF0FFFFFFFFFF
(1468514647.040495) vcan0 0CFE15F0#7D7DF0FFFFFFFFFF
(1468514647.041080) vcan0 0CFE17F0#7D7DF0FFFFFFFFFF
(1468514647.041653) vcan0 0CACFFF0#CE7D11FFFFFFFFFF
(1468514647.042232) vcan0 0CF022F0#000000000000FFE1
(1468514647.053362) vcan0 1CE726F0#FF0003FFFFFFFFFF
(1468514647.105124) vcan0 09F8022C#FFFC00000000FFFF
(1468514647.107332) vcan0 09F8032C#FFFF000000000000
(1468514647.109120) vcan0 0DF8092C#6B42A0C3CF170000
(1468514647.111801) vcan0 0DF8052C#802BFF6B42A0C3CF
(1468514647.114867) vcan0 0DF8052C#8117000000000000
(1468514647.116908) vcan0 0DF8052C#8200000000000000
(1468514647.118968) vcan0 0DF8052C#8300000000000000
(1468514647.121801) vcan0 0DF8052C#840000000000FF00
(1468514647.124291) vcan0 0DF8052C#8500000000000000
(1468514647.129192) vcan0 0DF8052C#860000FFFFFFFFFF
(1468514647.133285) vcan0 0DF9032C#FFFF00000000FFFF
(1468514647.133868) vcan0 1CE7FF80#230A0001FFFFFFFF
(1468514647.134448) vcan0 0CFE48F0#00000000000001D5
(1468514647.135028) vcan0 0CF004F0#FFFFFFB822FFFFFF
(1468514647.135612) vcan0 0CFEF2F0#4C00FFFFFFFFFFFF
(1468514647.136180) vcan0 0CFE45F0#F2CF80447FFFFFFF
(1468514647.136768) vcan0 0CFE11F0#7D7DF0FFFFFFFFFF
(1468514647.137352) vcan0 0CFE12F0#7D7DF0FFFFFFFFFF
(1468514647.137940) vcan0 0CFE13F0#7D7DF0FFFFFFFFFF
(1468514647.138524) vcan0 0CFE14F0#7D7DF0FFFFFFFFFF
(1468514647.139109) vcan0 0CFE15F0#7D7DF0FFFFFFFFFF
(1468514647.139692) vcan0 0CFE17F0#7D7DF0FFFFFFFFFF
(1468514647.140265) vcan0 0CACFFF0#CE7D11FFFFFFFFFF
(1468514647.140845) vcan0 0CF022F0#000000000000FFE1
(1468514647.203420) vcan0 09F8022C#FFFC00000000FFFF
(1468514647.207019) vcan0 09F8032C#FFFF000000000000
(1468514647.233413) vcan0 1CE7FF80#230A0001FFFFFFFF
(1468514647.233990) vcan0 0CFE48F0#00000000000001D5
(1468514647.234566) vcan0 0CF004F0#FFFFFFC822FFFFFF
(1468514647.235151) vcan0 0CFEF2F0#4C00FFFFFFFFFFFF
(1468514647.235719) vcan0 0CFE45F0#F2CF80447FFFFFFF
(1468514647.236307) vcan0 0CFE11F0#7D7DF0FFFFFFFFFF
(1468514647.236891) vcan0 0CFE12F0#7D7DF0FFFFFFFFFF
(1468514647.237479) vcan0 0CFE13F0#7D7DF0FFFFFFFFFF
(1468514647.238064) vcan0 0CFE14F0#7D7DF0FFFFFFFFFF
(1468514647.238647) vcan0 0CFE15F0#7D7DF0FFFFFFFFFF
(1468514647.239231) vcan0 0CFE17F0#7D7DF0FFFFFFFFFF
(1468514647.239803) vcan0 0CACFFF0#CE7D11FFFFFFFFFF
(1468514647.240384) vcan0 0CF022F0#000000000000FFE1
(1468514647.294032) vcan0 1CE6FF26#FEFFFFFFFFFF00FF
(1468514647.304362) vcan0 09F8022C#FFFC00000000FFFF
(1468514647.307389) vcan0 09F8032C#FFFF000000000000
(1468514647.333416) vcan0 1CE7FF80#230A0001FFFFFFFF
(1468514647.333994) vcan0 0CFE48F0#00000000000001D5
(1468514647.334565) vcan0 0CF004F0#FFFFFFD822FFFFFF
(1468514647.335137) vcan0 0CFEF2F0#4A00FFFFFFFFFFFF
(1468514647.335706) vcan0 0CFE45F0#F2CF80447FFFFFFF
(1468514647.336294) vcan0 0CFE11F0#7D7DF0FFFFFFFFFF
(1468514647.336877) vcan0 0CFE12F0#7D7DF0FFFFFFFFFF
(1468514647.337465) vcan0 0CFE13F0#7D7DF0FFFFFFFFFF
(1468514647.338050) vcan0 0CFE14F0#7D7DF0FFFFFFFFFF
(1468514647.338633) vcan0 0CFE15F0#7D7DF0FFFFFFFFFF
(1468514647.339218) vcan0 0CFE17F0#7D7DF0FFFFFFFFFF
(1468514647.339790) vcan0 0CACFFF0#CE7D11FFFFFFFFFF
(1468514647.340370) vcan0 0CF022F0#000000000000FFE1
(1468514647.404149) vcan0 09F8022C#FFFC00000000FFFF
(1468514647.406846) vcan0 09F8032C#FFFF000000000000
(1468514647.435116) vcan0 1CE7FF80#230A0001FFFFFFFF
(1468514647.435695) vcan0 0CFE48F0#00000000000001D5
(1468514647.436268) vcan0 0CF004F0#FFFFFFE022FFFFFF
(1468514647.436840) vcan0 0CFEF2F0#4A00FFFFFFFFFFFF
(1468514647.437407) vcan0 0CFE45F0#F2CF80447FFFFFFF
(1468514647.437996) vcan0 0CFE11F0#7D7DF0FFFFFFFFFF
(1468514647.438579) vcan0 0CFE12F0#7D7DF0FFFFFFFFFF
(1468514647.439167) vcan0 0CFE13F0#7D7DF0FFFFFFFFFF
(1468514647.439752) vcan0 0CFE14F0#7D7DF0FFFFFFFFFF
(1468514647.440335) vcan0 0CFE15F0#7D7DF0FFFFFFFFFF
(1468514647.440919) vcan0 0CFE17F0#7D7DF0FFFFFFFFFF
(1468514647.441492) vcan0 0CACFFF0#CE7D11FFFFFFFFFF
(1468514647.442073) vcan0 0CF022F0#000000000000FFE1
(1468514647.503975) vcan0 09F8022C#FFFC00000000FFFF
(1468514647.506872) vcan0 09F8032C#FFFF000000000000
(1468514647.533783) vcan0 1CE7FF80#230A0001FFFFFFFF
(1468514647.534360) vcan0 0CFE48F0#00000000000001D5
(1468514647.534933) vcan0 0CF004F0#FFFFFFD022FFFFFF
(1468514647.535504) vcan0 0CFEF2F0#4A00FFFFFFFFFFFF
(1468514647.536072) vcan0 0CFE45F0#F2CF80447FFFFFFF
(1468514647.536661) vcan0 0CFE11F0#7D7DF0FFFFFFFFFF
(1468514647.537245) vcan0 0CFE12F0#7D7DF0FFFFFFFFFF
(1468514647.537832) vcan0 0CFE13F0#7D7DF0FFFFFFFFFF
(1468514647.538417) vcan0 0CFE14F0#7D7DF0FFFFFFFFFF
(1468514647.539002) vcan0 0CFE15F0#7D7DF0FFFFFFFFFF
(1468514647.539585) vcan0 0CFE17F0#7D7DF0FFFFFFFFFF
(1468514647.540157) vcan0 0CACFFF0#CE7D11FFFFFFFFFF
(1468514647.540738) vcan0 0CF022F0#000000000000FFE1
(1468514647.604341) vcan0 09F8022C#FFFC00000000FFFF
(1468514647.607150) vcan0 09F8032C#FFFF000000000000
(1468514647.633381) vcan0 1CE7FF80#230A0001FFFFFFFF
(1468514647.633959) vcan0 0CFE48F0#00000000000001D5
(1468514647.634534) vcan0 0CF004F0#FFFFFFC822FFFFFF
(1468514647.635111) vcan0 0CFEF2F0#4E00FFFFFFFFFFFF
(1468514647.635679) vcan0 0CFE45F0#F2CF80447FFFFFFF
(1468514647.636267) vcan0 0CFE11F0#7D7DF0FFFFFFFFFF
(1468514647.636851) vcan0 0CFE12F0#7D7DF0FFFFFFFFFF
(1468514647.637439) vcan0 0CFE13F0#7D7DF0FFFFFFFFFF
(1468514647.638024) vcan0 0CFE14F0#7D7DF0FFFFFFFFFF
(1468514647.638608) vcan0 0CFE15F0#7D7DF0FFFFFFFFFF
(1468514647.639192) vcan0 0CFE17F0#7D7DF0FFFFFFFFFF
(1468514647.639764) vcan0 0CACFFF0#CA7D11FFFFFFFFFF
(1468514647.640344) vcan0 0CF022F0#000000000000FFE1
(1468514647.703699) vcan0 09F8022C#FFFC00000000FFFF
(1468514647.707437) vcan0 09F8032C#FFFF000000000000
(1468514647.733411) vcan0 1CE7FF80#230A0001FFFFFFFF
(1468514647.733986) vcan0 0CFE48F0#00000000000001D5
(1468514647.734561) vcan0 0CF004F0#FFFFFFC022FFFFFF
(1468514647.735137) vcan0 0CFEF2F0#4E00FFFFFFFFFFFF
(1468514647.735705) vcan0 0CFE45F0#F2CF80447FFFFFFF
(1468514647.736293) vcan0 0CFE11F0#7D7DF0FFFFFFFFFF
(1468514647.736878) vcan0 0CFE12F0#7D7DF0FFFFFFFFFF
(1468514647.737465) vcan0 0CFE13F0#7D7DF0FFFFFFFFFF
(1468514647.738050) vcan0 0CFE14F0#7D7DF0FFFFFFFFFF
(1468514647.738634) vcan0 0CFE15F0#7D7DF0FFFFFFFFFF
(1468514647.739218) vcan0 0CFE17F0#7D7DF0FFFFFFFFFF
(1468514647.739790) vcan0 0CFE41F0#03030F3F0F0FFFFF
(1468514647.740354) vcan0 0CFE40F0#03030F3F0F0FFFFF
(1468514647.740926) vcan0 0CACFFF0#CE7D11FFFFFFFFFF
(1468514647.741506) vcan0 0CF022F0#000000000000FFE1
(1468514647.803735) vcan0 09F8022C#FFFC00000000FFFF
(1468514647.807088) vcan0 09F8032C#FFFF000000000000
(1468514647.835014) vcan0 1CE7FF80#230A0001FFFFFFFF
(1468514647.835591) vcan0 0CFE48F0#00000000000001D5
(1468514647.836171) vcan0 0CF004F0#FFFFFFB822FFFFFF
(1468514647.836747) vcan0 0CFEF2F0#4E00FFFFFFFFFFFF
(1468514647.837315) vcan0 0CFE45F0#F2CF80447FFFFFFF
(1468514647.837904) vcan0 0CFE11F0#7D7DF0FFFFFFFFFF
(1468514647.838488) vcan0 0CFE12F0#7D7DF0FFFFFFFFFF
(1468514647.839075) vcan0 0CFE13F0#7D7DF0FFFFFFFFFF
(1468514647.839660) vcan0 0CFE14F0#7D7DF0FFFFFFFFFF
(1468514647.840244) vcan0 0CFE15F0#7D7DF0FFFFFFFFFF
(1468514647.840828) vcan0 0CFE17F0#7D7DF0FFFFFFFFFF
(1468514647.841401) vcan0 0CACFFF0#CE7D11FFFFFFFFFF
(1468514647.841982) vcan0 0CF022F0#000000000000FFE1
(1468514647.904222) vcan0 09F8022C#FFFC00000000FFFF
(1468514647.907429) vcan0 09F8032C#FFFF000000000000
(1468514647.926019) vcan0 0CCBF0F7#12008D00FFFFFFFF
(1468514647.929059) vcan0 0CCBF7F0#13008D0000000000
(1468514647.933491) vcan0 1CE7FF80#230A0001FFFFFFFF
(1468514647.934068) vcan0 0CFE48F0#00000000000001D5
(1468514647.934650) vcan0 0CF004F0#FFFFFFB822FFFFFF
(1468514647.935231) vcan0 0CFEF2F0#4C00FFFFFFFFFFFF
(1468514647.935799) vcan0 0CFE45F0#F2CF80447FFFFFFF
(1468514647.936387) vcan0 0CFE11F0#7D7DF0FFFFFFFFFF
(1468514647.936971) vcan0 0CFE12F0#7D7DF0FFFFFFFFFF
(1468514647.937559) vcan0 0CFE13F0#7D7DF0FFFFFFFFFF
(1468514647.938142) vcan0 0CFE14F0#7D7DF0FFFFFFFFFF
(1468514647.938726) vcan0 0CFE15F0#7D7DF0FFFFFFFFFF
(1468514647.939311) vcan0 0CFE17F0#7D7DF0FFFFFFFFFF
(1468514647.939883) vcan0 0CACFFF0#CA7D11FFFFFFFFFF
(1468514647.940463) vcan0 0CF022F0#000000000000FFE1
(1468514648.004325) vcan0 09F8022C#FFFC00000000FFFF
(1468514648.006966) vcan0 09F8032C#FFFF000000000000
(1468514648.033607) vcan0 1CE72680#FF0003FFFFFFFFFF
(1468514648.034187) vcan0 1CE7FF80#230A0001FFFFFFFF
(1468514648.034768) vcan0 0CFE48F0#00000000000001D5
(1468514648.035344) vcan0 0CF004F0#FFFFFFC022FFFFFF
(1468514648.035916) vcan0 0CFEF2F0#4A00FFFFFFFFFFFF
(1468514648.036484) vcan0 0CFE45F0#F2CF80447FFFFFFF
(1468514648.037072) vcan0 0CFE11F0#7D7DF0FFFFFFFFFF
(1468514648.037657) vcan0 0CFE12F0#7D7DF0FFFFFFFFFF
(1468514648.038245) vcan0 0CFE13F0#7D7DF0FFFFFFFFFF
(1468514648.038829) vcan0 0CFE14F0#7D7DF0FFFFFFFFFF
(1468514648.039412) vcan0 0CFE15F0#7D7DF0FFFFFFFFFF
(1468514648.039996) vcan0 0CFE17F0#7D7DF0FFFFFFFFFF
(1468514648.040569) vcan0 0CACFFF0#CE7D11FFFFFFFFFF
(1468514648.041149) vcan0 0CF022F0#000000000000FFE1
(1468514648.053411) vcan0 1CE726F0#FF0003FFFFFFFFFF
(1468514648.104993) vcan0 09F8022C#FFFC00000000FFFF
(1468514648.107358) vcan0 09F8032C#FFFF000000000000
(1468514648.112315) vcan0 0DF8092C#6B42B0EACF170000
(1468514648.114642) vcan0 0DF8052C#A02BFF6B42B0EACF
(1468514648.117055) vcan0 0DF8052C#A117000000000000
(1468514648.118884) vcan0 0DF8052C#A200000000000000
(1468514648.122465) vcan0 0DF8052C#A300000000000000
(1468514648.124522) vcan0 0DF8052C#A40000000000FF00
(1468514648.128610) vcan0 0DF8052C#A500000000000000
(1468514648.129190) vcan0 0CCBFFF7#FEFFFFFF00000000
(1468514648.132944) vcan0 0DF8052C#A60000FFFFFFFFFF
(1468514648.133526) vcan0 1CE7FF80#230A0001FFFFFFFF
(1468514648.134110) vcan0 0CCBF7F0#FFFFFFFF00000000
(1468514648.134690) vcan0 0CFE48F0#00000000000001D5
(1468514648.135267) vcan0 0CF004F0#FFFFFFC022FFFFFF
(1468514648.135838) vcan0 0CFEF2F0#4A00FFFFFFFFFFFF
(1468514648.136406) vcan0 0CFE45F0#F2CF80447FFFFFFF
(1468514648.136994) vcan0 0CFE11F0#7D7DF0FFFFFFFFFF
(1468514648.137579) vcan0 0CFE12F0#7D7DF0FFFFFFFFFF
(1468514648.138166) vcan0 0CFE13F0#7D7DF0FFFFFFFFFF
(1468514648.138751) vcan0 0CFE14F0#7D7DF0FFFFFFFFFF
(1468514648.139335) vcan0 0CFE15F0#7D7DF0FFFFFFFFFF
(1468514648.139919) vcan0 0CFE17F0#7D7DF0FFFFFFFFFF
(1468514648.140491) vcan0 0CACFFF0#CE7D11FFFFFFFFFF
(1468514648.141071) vcan0 0CF022F0#000000000000FFE1
(1468514648.141661) vcan0 0DF9032C#FFFF00000000FFFF
(1468514648.204389) vcan0 09F8022C#FFFC00000000FFFF
(1468514648.207101) vcan0 09F8032C#FFFF000000000000
(1468514648.221514) vcan0 0CCBF0F7#12004300FFFFFFFF
(1468514648.222150) vcan0 0CCBF7F0#13004300B80B0000
(1468514648.235066) vcan0 1CE7FF80#230A0001FFFFFFFF
(1468514648.235644) vcan0 0CFE48F0#00000000000001D5
(1468514648.236220) vcan0 0CF004F0#FFFFFFC822FFFFFF
(1468514648.236804) vcan0 0CFEF2F0#4C00FFFFFFFFFFFF
(1468514648.237372) vcan0 0CFE45F0#F2CF80447FFFFFFF
(1468514648.237961) vcan0 0CFE11F0#7D7DF0FFFFFFFFFF
(1468514648.238545) vcan0 0CFE12F0#7D7DF0FFFFFFFFFF
(1468514648.239132) vcan0 0CFE13F0#7D7DF0FFFFFFFFFF
(1468514648.239717) vcan0 0CFE14F0#7D7DF0FFFFFFFFFF
(1468514648.240301) vcan0 0CFE15F0#7D7DF0FFFFFFFFFF
(1468514648.240884) vcan0 0CFE17F0#7D7DF0FFFFFFFFFF
(1468514648.241457) vcan0 0CACFFF0#CA7D11FFFFFFFFFF
(1468514648.242039) vcan0 0CF022F0#000000000000FFE1
(1468514648.296747) vcan0 1CE6FF26#FEFFFFFFFFFF00FF
(1468514648.304732) vcan0 09F8022C#FFFC00000000FFFF
(1468514648.308887) vcan0 09F8032C#FFFF000000000000
(1468514648.333866) vcan0 1CE7FF80#230A0001FFFFFFFF
(1468514648.334443) vcan0 0CFE48F0#00000000000001D5
(1468514648.335015) vcan0 0CF004F0#FFFFFFD022FFFFFF
(1468514648.335599) vcan0 0CFEF2F0#4C00FFFFFFFFFFFF
(1468514648.336167) vcan0 0CFE45F0#F2CF80447FFFFFFF
(1468514648.336755) vcan0 0CFE11F0#7D7DF0FFFFFFFFFF
(1468514648.337339) vcan0 0CFE12F0#7D7DF0FFFFFFFFFF
(1468514648.337932) vcan0 0CFE13F0#7D7DF0FFFFFFFFFF
(1468514648.338512) vcan0 0CFE14F0#7D7DF0FFFFFFFFFF
(1468514648.339096) vcan0 0CFE15F0#7D7DF0FFFFFFFFFF
(1468514648.339679) vcan0 0CFE17F0#7D7DF0FFFFFFFFFF
(1468514648.340252) vcan0 0CACFFF0#CE7D11FFFFFFFFFF
(1468514648.340831) vcan0 0CF022F0#000000000000FFE1
(1468514648.403408) vcan0 09F8022C#FFFC00000000FFFF
(1468514648.407237) vcan0 09F8032C#FFFF000000000000
(1468514648.433432) vcan0 1CE7FF80#230A0001FFFFFFFF
(1468514648.434005) vcan0 0CFE48F0#00000000000001D5
(1468514648.434580) vcan0 0CF004F0#FFFFFFC822FFFFFF
(1468514648.435164) vcan0 0CFEF2F0#4C00FFFFFFFFFFFF
(1468514648.435732) vcan0 0CFE45F0#F2CF80447FFFFFFF
(1468514648.436321) vcan0 0CFE11F0#7D7DF0FFFFFFFFFF
(1468514648.436905) vcan0 0CFE12F0#7D7DF0FFFFFFFFFF
(1468514648.437493) vcan0 0CFE13F0#7D7DF0FFFFFFFFFF
(1468514648.438078) vcan0 0CFE14F0#7D7DF0FFFFFFFFFF
(1468514648.438661) vcan0 0CFE15F0#7D7DF0FFFFFFFFFF
(1468514648.439249) vcan0 0CFE17F0#7D7DF0FFFFFFFFFF
(1468514648.439821) vcan0 0CACFFF0#CE7D11FFFFFFFFFF
(1468514648.440402) vcan0 0CF022F0#000000000000FFE1
(1468514648.504018) vcan0 09F8022C#FFFC00000000FFFF
(1468514648.507581) vcan0 09F8032C#FFFF000000000000
(1468514648.533644) vcan0 1CE7FF80#230A0001FFFFFFFF
(1468514648.534168) vcan0 0CFE48F0#00000000000001D5
(1468514648.534746) vcan0 0CF004F0#FFFFFFC022FFFFFF
(1468514648.535315) vcan0 0CFEF2F0#4C00FFFFFFFFFFFF
(1468514648.535884) vcan0 0CFE45F0#F2CF80447FFFFFFF
(1468514648.536494) vcan0 0CFE11F0#7D7DF0FFFFFFFFFF
(1468514648.537072) vcan0 0CFE12F0#7D7DF0FFFFFFFFFF
(1468514648.537649) vcan0 0CFE13F0#7D7DF0FFFFFFFFFF
(1468514648.538246) vcan0 0CFE14F0#7D7DF0FFFFFFFFFF
(1468514648.538829) vcan0 0CFE15F0#7D7DF0FFFFFFFFFF
(1468514648.539392) vcan0 0CFE17F0#7D7DF0FFFFFFFFFF
(1468514648.539965) vcan0 0CACFFF0#CE7D11FFFFFFFFFF
(1468514648.540548) vcan0 0CF022F0#000000000000FFE1
(1468514648.604933) vcan0 09F8022C#FFFC00000000FFFF
(1468514648.607909) vcan0 09F8032C#FFFF000000000000
(1468514648.635123) vcan0 1CE7FF80#230A0001FFFFFFFF
(1468514648.635643) vcan0 0CFE48F0#00000000000001D5
(1468514648.636212) vcan0 0CF004F0#FFFFFFB822FFFFFF
(1468514648.636791) vcan0 0CFEF2F0#4C00FFFFFFFFFFFF
(1468514648.637377) vcan0 0CFE45F0#F2CF80447FFFFFFF
(1468514648.637965) vcan0 0CFE11F0#7D7DF0FFFFFFFFFF
(1468514648.638536) vcan0 0CFE12F0#7D7DF0FFFFFFFFFF
(1468514648.639123) vcan0 0CFE13F0#7D7DF0FFFFFFFFFF
(1468514648.639715) vcan0 0CFE14F0#7D7DF0FFFFFFFFFF
(1468514648.640301) vcan0 0CFE15F0#7D7DF0FFFFFFFFFF
(1468514648.640889) vcan0 0CFE17F0#7D7DF0FFFFFFFFFF
(1468514648.641448) vcan0 0CACFFF0#CE7D11FFFFFFFFFF
(1468514648.642030) vcan0 0CF022F0#000000000000FFE1
(1468514648.704170) vcan0 09F8022C#FFFC00000000FFFF
(1468514648.706897) vcan0 09F8032C#FFFF000000000000
(1468514648.733547) vcan0 1CE7FF80#230A0001FFFFFFFF
(1468514648.734031) vcan0 0CFE48F0#00000000000001D5
(1468514648.734611) vcan0 0CF004F0#FFFFFFC022FFFFFF
(1468514648.735176) vcan0 0CFEF2F0#4A00FFFFFFFFFFFF
(1468514648.735738) vcan0 0CFE45F0#F2CF80447FFFFFFF
(1468514648.736309) vcan0 0CFE11F0#7D7DF0FFFFFFFFFF
(1468514648.736910) vcan0 0CFE12F0#7D7DF0FFFFFFFFFF
(1468514648.737506) vcan0 0CFE13F0#7D7DF0FFFFFFFFFF
(1468514648.738077) vcan0 0CFE14F0#7D7DF0FFFFFFFFFF
(1468514648.738658) vcan0 0CFE15F0#7D7DF0FFFFFFFFFF
(1468514648.739241) vcan0 0CFE17F0#7D7DF0FFFFFFFFFF
(1468514648.739810) vcan0 0CFE41F0#03030F3F0F0FFFFF
(1468514648.740374) vcan0 0CFE40F0#03030F3F0F0FFFFF
(1468514648.740946) vcan0 0CACFFF0#CA7D11FFFFFFFFFF
(1468514648.741528) vcan0 0CF022F0#000000000000FFE1
(1468514648.804475) vcan0 09F8022C#FFFC00000000FFFF
(1468514648.807197) vcan0 09F8032C#FFFF000000000000
(1468514648.833403) vcan0 1CE7FF80#230A0001FFFFFFFF
(1468514648.833983) vcan0 0CFE48F0#00000000000001D5
(1468514648.834561) vcan0 0CF004F0#FFFFFFD022FFFFFF
(1468514648.835130) vcan0 0CFEF2F0#4E00FFFFFFFFFFFF
(1468514648.835706) vcan0 0CFE45F0#F2CF80447FFFFFFF
(1468514648.836305) vcan0 0CFE11F0#7D7DF0FFFFFFFFFF
(1468514648.836872) vcan0 0CFE12F0#7D7DF0FFFFFFFFFF
(1468514648.837456) vcan0 0CFE13F0#7D7DF0FFFFFFFFFF
(1468514648.838049) vcan0 0CFE14F0#7D7DF0FFFFFFFFFF
(1468514648.838620) vcan0 0CFE15F0#7D7DF0FFFFFFFFFF
(1468514648.839213) vcan0 0CFE17F0#7D7DF0FFFFFFFFFF
(1468514648.839781) vcan0 0CACFFF0#CE7D11FFFFFFFFFF
(1468514648.840365) vcan0 0CF022F0#000000000000FFE1
(1468514648.903663) vcan0 09F8022C#FFFC00000000FFFF
(1468514648.907534) vcan0 09F8032C#FFFF000000000000
(1468514648.933417) vcan0 1CE7FF80#230A0001FFFFFFFF
(1468514648.933995) vcan0 0CFE48F0#00000000000001D5
(1468514648.934568) vcan0 0CF004F0#FFFFFFD022FFFFFF
(1468514648.935157) vcan0 0CFEF2F0#4C00FFFFFFFFFFFF
(1468514648.935718) vcan0 0CFE45F0#F2CF80447FFFFFFF
(1468514648.936302) vcan0 0CFE11F0#7D7DF0FFFFFFFFFF
(1468514648.936892) vcan0 0CFE12F0#7D7DF0FFFFFFFFFF
(1468514648.937478) vcan0 0CFE13F0#7D7DF0FFFFFFFFFF
(1468514648.938063) vcan0 0CFE14F0#7D7DF0FFFFFFFFFF
(1468514648.938647) vcan0 0CFE15F0#7D7DF0FFFFFFFFFF
(1468514648.939230) vcan0 0CFE17F0#7D7DF0FFFFFFFFFF
(1468514648.939803) vcan0 0CACFFF0#CE7D11FFFFFFFFFF
(1468514648.940381) vcan0 0CF022F0#000000000000FFE1
(1468514648.960972) vcan0 0CCBF0F7#12008D00FFFFFFFF
(1468514648.961641) vcan0 0CCBF7F0#13008D0000000000
(1468514649.004229) vcan0 09F8022C#FFFC00000000FFFF
(1468514649.007235) vcan0 09F8032C#FFFF000000000000
(1468514649.033869) vcan0 1CE72680#FF0003FFFFFFFFFF
(1468514649.034473) vcan0 1CE7FF80#230A0001FFFFFFFF
(1468514649.035030) vcan0 0CFE48F0#00000000000001D5
(1468514649.035605) vcan0 0CF004F0#FFFFFFC022FFFFFF
(1468514649.036183) vcan0 0CFEF2F0#4E00FFFFFFFFFFFF
(1468514649.036759) vcan0 0CFE45F0#F2CF80447FFFFFFF
(1468514649.037336) vcan0 0CFE11F0#7D7DF0FFFFFFFFFF
(1468514649.037921) vcan0 0CFE12F0#7D7DF0FFFFFFFFFF
(1468514649.038502) vcan0 0CFE13F0#7D7DF0FFFFFFFFFF
(1468514649.039091) vcan0 0CFE14F0#7D7DF0FFFFFFFFFF
(1468514649.039678) vcan0 0CFE15F0#7D7DF0FFFFFFFFFF
(1468514649.040262) vcan0 0CFE17F0#7D7DF0FFFFFFFFFF
(1468514649.040833) vcan0 0CACFFF0#CE7D11FFFFFFFFFF
(1468514649.041412) vcan0 0CF022F0#000000000000FFE1
(1468514649.053417) vcan0 1CE726F0#FF0003FFFFFFFFFF
(1468514649.105547) vcan0 09F8022C#FFFC00000000FFFF
(1468514649.107585) vcan0 09F8032C#FFFF000000000000
(1468514649.109607) vcan0 0DF8092C#6B42C011D0170000
(1468514649.112409) vcan0 0DF8052C#C02BFF6B42C011D0
(1468514649.116492) vcan0 0DF8052C#C117000000000000
(1468514649.118317) vcan0 0DF8052C#C200000000000000
(1468514649.121918) vcan0 0DF8052C#C300000000000000
(1468514649.123957) vcan0 0DF8052C#C40000000000FF00
(1468514649.128712) vcan0 0DF8052C#C500000000000000
(1468514649.132170) vcan0 0DF8052C#C60000FFFFFFFFFF
(1468514649.133638) vcan0 1CE7FF80#230A0001FFFFFFFF
(1468514649.134218) vcan0 0CFE48F0#00000000000001D5
(1468514649.134793) vcan0 0CF004F0#FFFFFFC022FFFFFF
(1468514649.135372) vcan0 0CFEF2F0#4E00FFFFFFFFFFFF
(1468514649.135940) vcan0 0CFE45F0#F2CF80447FFFFFFF
(1468514649.136529) vcan0 0CFE11F0#7D7DF0FFFFFFFFFF
(1468514649.137113) vcan0 0CFE12F0#7D7DF0FFFFFFFFFF
(1468514649.137696) vcan0 0CFE13F0#7D7DF0FFFFFFFFFF
(1468514649.138292) vcan0 0CFE14F0#7D7DF0FFFFFFFFFF
(1468514649.138865) vcan0 0CFE15F0#7D7DF0FFFFFFFFFF
(1468514649.139449) vcan0 0CFE17F0#7D7DF0FFFFFFFFFF
(1468514649.140019) vcan0 0CACFFF0#CE7D11FFFFFFFFFF
(1468514649.140602) vcan0 0CF022F0#000000000000FFE1
(1468514649.141190) vcan0 0DF9032C#FFFF00000000FFFF
(1468514649.203830) vcan0 09F8022C#FFFC00000000FFFF
(1468514649.206915) vcan0 09F8032C#FFFF000000000000
(1468514649.233407) vcan0 1CE7FF80#230A0001FFFFFFFF
(1468514649.233993) vcan0 0CFE48F0#00000000000001D5
(1468514649.234564) vcan0 0CF004F0#FFFFFFB822FFFFFF
(1468514649.235146) vcan0 0CFEF2F0#4C00FFFFFFFFFFFF
(1468514649.235713) vcan0 0CFE45F0#F2CF80447FFFFFFF
(1468514649.236302) vcan0 0CFE11F0#7D7DF0FFFFFFFFFF
(1468514649.236889) vcan0 0CFE12F0#7D7DF0FFFFFFFFFF
(1468514649.237474) vcan0 0CFE13F0#7D7DF0FFFFFFFFFF
(1468514649.238058) vcan0 0CFE14F0#7D7DF0FFFFFFFFFF
(1468514649.238655) vcan0 0CFE15F0#7D7DF0FFFFFFFFFF
(1468514649.239226) vcan0 0CFE17F0#7D7DF0FFFFFFFFFF
(1468514649.239798) vcan0 0CACFFF0#CA7D11FFFFFFFFFF
(1468514649.240376) vcan0 0CF022F0#000000000000FFE1
(1468514649.300111) vcan0 1CE6FF26#FEFFFFFFFFFF00FF
(1468514649.304189) vcan0 09F8022C#FFFC00000000FFFF
(1468514649.307044) vcan0 09F8032C#FFFF000000000000
(1468514649.333496) vcan0 1CE7FF80#230A0001FFFFFFFF
(1468514649.334028) vcan0 0CFE48F0#00000000000001D5
(1468514649.334586) vcan0 0CF004F0#FFFFFFB822FFFFFF
(1468514649.335175) vcan0 0CFEF2F0#4C00FFFFFFFFFFFF
(1468514649.335737) vcan0 0CFE45F0#F2CF80447FFFFFFF
(1468514649.336335) vcan0 0CFE11F0#7D7DF0FFFFFFFFFF
(1468514649.336912) vcan0 0CFE12F0#7D7DF0FFFFFFFFFF
(1468514649.337508) vcan0 0CFE13F0#7D7DF0FFFFFFFFFF
(1468514649.338091) vcan0 0CFE14F0#7D7DF0FFFFFFFFFF
(1468514649.338679) vcan0 0CFE15F0#7D7DF0FFFFFFFFFF
(1468514649.339257) vcan0 0CFE17F0#7D7DF0FFFFFFFFFF
(1468514649.339832) vcan0 0CACFFF0#CE7D11FFFFFFFFFF
(1468514649.340404) vcan0 0CF022F0#000000000000FFE1
(1468514649.403703) vcan0 09F8022C#FFFC00000000FFFF
(1468514649.407359) vcan0 09F8032C#FFFF000000000000
(1468514649.434877) vcan0 1CE7FF80#230A0001FFFFFFFF
(1468514649.435452) vcan0 0CFE48F0#00000000000001D5
(1468514649.436027) vcan0 0CF004F0#FFFFFFC022FFFFFF
(1468514649.436609) vcan0 0CFEF2F0#4C00FFFFFFFFFFFF
(1468514649.437178) vcan0 0CFE45F0#F2CF80447FFFFFFF
(1468514649.437766) vcan0 0CFE11F0#7D7DF0FFFFFFFFFF
(1468514649.438351) vcan0 0CFE12F0#7D7DF0FFFFFFFFFF
(1468514649.438938) vcan0 0CFE13F0#7D7DF0FFFFFFFFFF
(1468514649.439523) vcan0 0CFE14F0#7D7DF0FFFFFFFFFF
(1468514649.440106) vcan0 0CFE15F0#7D7DF0FFFFFFFFFF
(1468514649.440690) vcan0 0CFE17F0#7D7DF0FFFFFFFFFF
(1468514649.441263) vcan0 0CACFFF0#CE7D11FFFFFFFFFF
(1468514649.441846) vcan0 0CF022F0#000000000000FFE1
(1468514649.503924) vcan0 09F8022C#FFFC00000000FFFF
(1468514649.506966) vcan0 09F8032C#FFFF000000000000
(1468514649.533460) vcan0 1CE7FF80#230A0001FFFFFFFF
(1468514649.534036) vcan0 0CFE48F0#00000000000001D5
(1468514649.534612) vcan0 0CF004F0#FFFFFFC022FFFFFF
(1468514649.535184) vcan0 0CFEF2F0#4A00FFFFFFFFFFFF
(1468514649.535752) vcan0 0CFE45F0#F2CF80447FFFFFFF
(1468514649.536340) vcan0 0CFE11F0#7D7DF0FFFFFFFFFF
(1468514649.536925) vcan0 0CFE12F0#7D7DF0FFFFFFFFFF
(1468514649.537512) vcan0 0CFE13F0#7D7DF0FFFFFFFFFF
(1468514649.538097) vcan0 0CFE14F0#7D7DF0FFFFFFFFFF
(1468514649.538680) vcan0 0CFE15F0#7D7DF0FFFFFFFFFF
(1468514649.539264) vcan0 0CFE17F0#7D7DF0FFFFFFFFFF
(1468514649.539837) vcan0 0CACFFF0#CE7D11FFFFFFFFFF
(1468514649.540416) vcan0 0CF022F0#000000000000FFE1
(1468514649.603988) vcan0 09F8022C#FFFC00000000FFFF
(1468514649.612072) vcan0 09F8032C#FFFF000000000000
(1468514649.633458) vcan0 1CE7FF80#230A0001FFFFFFFF
(1468514649.634033) vcan0 0CFE48F0#00000000000001D5
(1468514649.634607) vcan0 0CF004F0#FFFFFFC822FFFFFF
(1468514649.635183) vcan0 0CFEF2F0#4E00FFFFFFFFFFFF
(1468514649.635750) vcan0 0CFE45F0#F2CF80447FFFFFFF
(1468514649.636338) vcan0 0CFE11F0#7D7DF0FFFFFFFFFF
(1468514649.636921) vcan0 0CFE12F0#7D7DF0FFFFFFFFFF
(1468514649.637510) vcan0 0CFE13F0#7D7DF0FFFFFFFFFF
(1468514649.638094) vcan0 0CFE14F0#7D7DF0FFFFFFFFFF
(1468514649.638679) vcan0 0CFE15F0#7D7DF0FFFFFFFFFF
(1468514649.639262) vcan0 0CFE17F0#7D7DF0FFFFFFFFFF
(1468514649.639835) vcan0 0CACFFF0#CA7D11FFFFFFFFFF
(1468514649.640414) vcan0 0CF022F0#000000000000FFE1
(1468514649.703844) vcan0 09F8022C#FFFC00000000FFFF
(1468514649.707628) vcan0 09F8032C#FFFF000000000000
(1468514649.733613) vcan0 1CE7FF80#230A0001FFFFFFFF
(1468514649.734190) vcan0 0CFE48F0#00000000000001D5
(1468514649.734764) vcan0 0CF004F0#FFFFFFC822FFFFFF
(1468514649.735348) vcan0 0CFEF2F0#4C00FFFFFFFFFFFF
(1468514649.735917) vcan0 0CFE45F0#F2CF80447FFFFFFF
(1468514649.736504) vcan0 0CFE11F0#7D7DF0FFFFFFFFFF
(1468514649.737089) vcan0 0CFE12F0#7D7DF0FFFFFFFFFF
(1468514649.737676) vcan0 0CFE13F0#7D7DF0FFFFFFFFFF
(1468514649.738261) vcan0 0CFE14F0#7D7DF0FFFFFFFFFF
(1468514649.738844) vcan0 0CFE15F0#7D7DF0FFFFFFFFFF
(1468514649.739429) vcan0 0CFE17F0#7D7DF0FFFFFFFFFF
(1468514649.740001) vcan0 0CFE41F0#03030F3F0F0FFFFF
(1468514649.740565) vcan0 0CFE40F0#03030F3F0F0FFFFF
(1468514649.741136) vcan0 0CACFFF0#CE7D11FFFFFFFFFF
(1468514649.741718) vcan0 0CF022F0#000000000000FFE1
(1468514649.804828) vcan0 09F8022C#FFFC00000000FFFF
(1468514649.807193) vcan0 09F8032C#FFFF000000000000
(1468514649.835428) vcan0 1CE7FF80#230A0001FFFFFFFF
(1468514649.836006) vcan0 0CFE48F0#00000000000001D5
(1468514649.836581) vcan0 0CF004F0#FFFFFFC022FFFFFF
(1468514649.837166) vcan0 0CFEF2F0#4C00FFFFFFFFFFFF
(1468514649.837735) vcan0 0CFE45F0#F2CF80447FFFFFFF
(1468514649.838329) vcan0 0CFE11F0#7D7DF0FFFFFFFFFF
(1468514649.838909) vcan0 0CFE12F0#7D7DF0FFFFFFFFFF
(1468514649.839494) vcan0 0CFE13F0#7D7DF0FFFFFFFFFF
(1468514649.840079) vcan0 0CFE14F0#7D7DF0FFFFFFFFFF
(1468514649.840663) vcan0 0CFE15F0#7D7DF0FFFFFFFFFF
(1468514649.841247) vcan0 0CFE17F0#7D7DF0FFFFFFFFFF
(1468514649.841820) vcan0 0CACFFF0#CA7D11FFFFFFFFFF
(1468514649.842399) vcan0 0CF022F0#000000000000FFE1
(1468514649.904222) vcan0 09F8022C#FFFC00000000FFFF
(1468514649.906947) vcan0 09F8032C#FFFF000000000000
(1468514649.933840) vcan0 1CE7FF80#230A0001FFFFFFFF
(1468514649.934417) vcan0 0CFE48F0#00000000000001D5
(1468514649.934996) vcan0 0CF004F0#FFFFFFB822FFFFFF
(1468514649.935580) vcan0 0CFEF2F0#4C00FFFFFFFFFFFF
(1468514649.936148) vcan0 0CFE45F0#F2CF80447FFFFFFF
(1468514649.936736) vcan0 0CFE11F0#7D7DF0FFFFFFFFFF
(1468514649.937320) vcan0 0CFE12F0#7D7DF0FFFFFFFFFF
(1468514649.937908) vcan0 0CFE13F0#7D7DF0FFFFFFFFFF
(1468514649.938493) vcan0 0CFE14F0#7D7DF0FFFFFFFFFF
(1468514649.939076) vcan0 0CFE15F0#7D7DF0FFFFFFFFFF
(1468514649.939661) vcan0 0CFE17F0#7D7DF0FFFFFFFFFF
(1468514649.940232) vcan0 0CACFFF0#CA7D11FFFFFFFFFF
(1468514649.940813) vcan0 0CF022F0#000000000000FFE1
(1468514649.995533) vcan0 0CCBF0F7#12008D00FFFFFFFF
(1468514649.996182) vcan0 0CCBF7F0#13008D0000000000
(1468514650.004592) vcan0 09F8022C#FFFC00000000FFFF
(1468514650.007329) vcan0 09F8032C#FFFF000000000000
(1468514650.033498) vcan0 1CE72680#FF0003FFFFFFFFFF
(1468514650.034080) vcan0 1CE7FF80#230A0001FFFFFFFF
(1468514650.034659) vcan0 0CFE48F0#00000000000001D5
(1468514650.035235) vcan0 0CF004F0#FFFFFFE022FFFFFF
(1468514650.035815) vcan0 0CFEF2F0#4800FFFFFFFFFFFF
(1468514650.036383) vcan0 0CFE45F0#F2CF80447FFFFFFF
(1468514650.036971) vcan0 0CFE11F0#7D7DF0FFFFFFFFFF
(1468514650.037555) vcan0 0CFE12F0#7D7DF0FFFFFFFFFF
(1468514650.038144) vcan0 0CFE13F0#7D7DF0FFFFFFFFFF
(1468514650.038728) vcan0 0CFE14F0#7D7DF0FFFFFFFFFF
(1468514650.039312) vcan0 0CFE15F0#7D7DF0FFFFFFFFFF
(1468514650.039895) vcan0 0CFE17F0#7D7DF0FFFFFFFFFF
(1468514650.040467) vcan0 0CACFFF0#CA7D11FFFFFFFFFF
(1468514650.041047) vcan0 0CF022F0#000000000000FFE1
(1468514650.053427) vcan0 1CE726F0#FF0003FFFFFFFFFF
(1468514650.084776) vcan0 0CCBFFF7#FEFFFFFF00000000
(1468514650.093584) vcan0 0CCBF7F0#FFFFFFFF00000000
(1468514650.104951) vcan0 09F8022C#FFFC00000000FFFF
(1468514650.106985) vcan0 09F8032C#FFFF000000000000
(1468514650.111177) vcan0 0DF8092C#6B42D038D0170000
(1468514650.113510) vcan0 0DF8052C#E02BFF6B42D038D0
(1468514650.117217) vcan0 0DF8052C#E117000000000000
(1468514650.119269) vcan0 0DF8052C#E200000000000000
(1468514650.121990) vcan0 0DF8052C#E300000000000000
(1468514650.123821) vcan0 0DF8052C#E40000000000FF00
(1468514650.127601) vcan0 0DF8052C#E500000000000000
(1468514650.129521) vcan0 0DF8052C#E60000FFFFFFFFFF
(1468514650.133443) vcan0 1CE7FF80#230A0001FFFFFFFF
(1468514650.134021) vcan0 0CFE48F0#00000000000001D5
(1468514650.134598) vcan0 0CF004F0#FFFFFFE822FFFFFF
(1468514650.135181) vcan0 0CFEF2F0#3E00FFFFFFFFFFFF
(1468514650.135749) vcan0 0CFE45F0#F2CF80447FFFFFFF
(1468514650.136336) vcan0 0CFE11F0#7D7DF0FFFFFFFFFF
(1468514650.136921) vcan0 0CFE12F0#7D7DF0FFFFFFFFFF
(1468514650.137508) vcan0 0CFE13F0#7D7DF0FFFFFFFFFF
(1468514650.138093) vcan0 0CFE14F0#7D7DF0FFFFFFFFFF
(1468514650.138676) vcan0 0CFE15F0#7D7DF0FFFFFFFFFF
(1468514650.139261) vcan0 0CFE17F0#7D7DF0FFFFFFFFFF
(1468514650.139833) vcan0 0CACFFF0#CE7D11FFFFFFFFFF
(1468514650.140413) vcan0 0CF022F0#000000000000FFE1
(1468514650.141001) vcan0 0DF9032C#FFFF00000000FFFF
(1468514650.203681) vcan0 09F8022C#FFFC00000000FFFF
(1468514650.208278) vcan0 09F8032C#FFFF000000000000
(1468514650.235148) vcan0 1CE7FF80#230A0001FFFFFFFF
(1468514650.235773) vcan0 0CFE48F0#00000000000001D5
(1468514650.236350) vcan0 0CF004F0#FFFFFFF022FFFFFF
(1468514650.236933) vcan0 0CFEF2F0#3C00FFFFFFFFFFFF
(1468514650.237502) vcan0 0CFE45F0#F2CF80447FFFFFFF
